#  HZ   S   DB   R     50.00 
! Rohde & Schwarz Vector Network Analyzer 
! Rohde-Schwarz,ZNC3-2Port,1311600412101323,1.94
! Created: UTC 6/24/2025, 10:50:46 PM
!The following Port Impedance Renormalization has been used when saving the data.
!PortZ  Port1:50+j0    Port2:50+j0
! freq[Hz]                db:S11                  ang:S11                 db:S21                  ang:S21                 db:S12                  ang:S12                 db:S22                  ang:S22
 5.000000000000000E8    -2.331992948679847E1     7.395890411572434E1    -1.043763169017088E1    -1.216086221431832E2    -1.060533966613854E1    -1.226133712042437E2    -2.326105635432364E1     8.145799470372788E1
 5.050000000000000E8    -2.353664460636096E1     7.400809914722099E1    -1.049779621040135E1    -1.226050625317809E2    -1.068248546300304E1    -1.235155616393731E2    -2.346825193533404E1     8.125670640125318E1
 5.100000000000000E8    -2.370581481789778E1     7.368867326764509E1    -1.057278640434103E1    -1.236150126287849E2    -1.076719860696813E1    -1.245260776994680E2    -2.372550755190884E1     8.114448690362040E1
 5.150000000000000E8    -2.400511449880214E1     7.402123557671642E1    -1.066028816699787E1    -1.245276822704913E2    -1.084732900469800E1    -1.256304174311597E2    -2.397240472026669E1     8.108401792532364E1
 5.200000000000000E8    -2.430967056990919E1     7.401658261937806E1    -1.075222267003259E1    -1.255917334799332E2    -1.092316637117852E1    -1.266551823553706E2    -2.423565365282602E1     8.134118086554867E1
 5.250000000000000E8    -2.464728336026752E1     7.357468213423789E1    -1.083668183325934E1    -1.264870237854314E2    -1.100294693878577E1    -1.275774959499271E2    -2.441964006502986E1     8.103860884173474E1
 5.300000000000000E8    -2.493505455825975E1     7.317768374714096E1    -1.092203140696477E1    -1.274450124645255E2    -1.110419996307817E1    -1.283964082722541E2    -2.469101358154912E1     8.181701615054860E1
 5.350000000000000E8    -2.523695836479554E1     7.306083211446202E1    -1.100184770551991E1    -1.283544793079444E2    -1.118533527559046E1    -1.292520849468403E2    -2.491149100868582E1     8.175301556781679E1
 5.400000000000000E8    -2.560261520346982E1     7.312115503165771E1    -1.109878965314389E1    -1.292635349577815E2    -1.126389011586049E1    -1.301240831150497E2    -2.524616846117117E1     8.242166290930229E1
 5.450000000000000E8    -2.588059096516855E1     7.280268185880968E1    -1.117614502754688E1    -1.301533022845989E2    -1.133502781795549E1    -1.311317582247025E2    -2.544497957682030E1     8.277560312386959E1
 5.500000000000000E8    -2.615778095074262E1     7.215323488267892E1    -1.125735764323877E1    -1.309258407469464E2    -1.141399280206651E1    -1.321034790903076E2    -2.580404900061713E1     8.350251981457123E1
 5.550000000000000E8    -2.640589313735614E1     7.250737840314451E1    -1.135358326933523E1    -1.318994666436977E2    -1.149449927060260E1    -1.330476252868051E2    -2.601434527259367E1     8.408469365790236E1
 5.600000000000000E8    -2.667404974161449E1     7.296161737774096E1    -1.142476010516970E1    -1.328018228937366E2    -1.157574243880562E1    -1.341226484584100E2    -2.630986137168048E1     8.533729701074141E1
 5.650000000000000E8    -2.713079022445711E1     7.256241150198777E1    -1.149288962405128E1    -1.336204805354844E2    -1.168467394560267E1    -1.351660212346183E2    -2.662615183712227E1     8.570831320597009E1
 5.700000000000000E8    -2.735952038126929E1     7.320050444557026E1    -1.156545566989132E1    -1.346612698135501E2    -1.177681298549077E1    -1.360200785758037E2    -2.697042537371916E1     8.605573329177756E1
 5.750000000000000E8    -2.771877534509174E1     7.274802023943886E1    -1.167174033658728E1    -1.356512342771732E2    -1.187135756227997E1    -1.368656577528899E2    -2.724494062475389E1     8.734808950831001E1
 5.800000000000000E8    -2.807310350040533E1     7.237595884649653E1    -1.173188335918954E1    -1.365626842578128E2    -1.195248513618348E1    -1.377538064987768E2    -2.759327350689479E1     8.849092418241141E1
 5.850000000000000E8    -2.843032649551537E1     7.263434611477037E1    -1.183404117646317E1    -1.375343359030993E2    -1.203229366109846E1    -1.385482631849825E2    -2.798947488483787E1     8.991443910988464E1
 5.900000000000000E8    -2.871806314487436E1     7.299103458957671E1    -1.192799934976250E1    -1.385625903811036E2    -1.210637401200699E1    -1.394640826285194E2    -2.823894589305868E1     9.080141127886371E1
 5.950000000000000E8    -2.902586720814478E1     7.347321906664739E1    -1.203394597198911E1    -1.395575407832999E2    -1.218624400663595E1    -1.403394576907561E2    -2.862714097681379E1     9.220222968292750E1
 6.000000000000000E8    -2.930374950462435E1     7.425449311394729E1    -1.212892215381322E1    -1.405065428720157E2    -1.226555045902355E1    -1.413109651296432E2    -2.887488200009980E1     9.339561496061968E1
 6.050000000000000E8    -2.972774012434372E1     7.545001785618851E1    -1.222907400874355E1    -1.413953839484369E2    -1.234854346554399E1    -1.422692815351854E2    -2.917885436857271E1     9.405088431547297E1
 6.100000000000000E8    -2.991212106961043E1     7.814581361156172E1    -1.232334632899424E1    -1.422192937078085E2    -1.246736487640987E1    -1.432750526331318E2    -2.945314940738427E1     9.618055757021755E1
 6.150000000000000E8    -3.061486731545413E1     7.921939044251397E1    -1.240799592310391E1    -1.431000477409382E2    -1.256624310273062E1    -1.442442104318957E2    -2.993332434482688E1     9.726545835422625E1
 6.200000000000000E8    -3.101903219915169E1     8.062605516807074E1    -1.248971192318174E1    -1.440165665091022E2    -1.267326691102245E1    -1.450145911785748E2    -3.015789766556136E1     9.966073287708672E1
 6.250000000000000E8    -3.178210929049708E1     8.228272931688527E1    -1.256921808276360E1    -1.451431847150765E2    -1.277113415377686E1    -1.458063313073312E2    -3.049638972296611E1     1.009659363350248E2
 6.300000000000000E8    -3.221504927848046E1     8.247647884865970E1    -1.265032104520728E1    -1.460371004427263E2    -1.284783549197372E1    -1.467098517617619E2    -3.060289862637784E1     1.030433292413023E2
 6.350000000000000E8    -3.289739112058586E1     8.242103952658889E1    -1.275606372897229E1    -1.469946139670662E2    -1.295726571544958E1    -1.473819231902784E2    -3.077727754684846E1     1.047916026091149E2
 6.400000000000000E8    -3.340204262804548E1     8.377349469471390E1    -1.283873167161942E1    -1.478844374498722E2    -1.303999806375991E1    -1.485568782286939E2    -3.105330280908751E1     1.069009670001037E2
 6.450000000000000E8    -3.362026834672080E1     8.210178307628776E1    -1.293054369458929E1    -1.488236535149802E2    -1.312229510797192E1    -1.493887999791765E2    -3.104732484830652E1     1.096304999888218E2
 6.500000000000000E8    -3.356086251123176E1     8.434323932870007E1    -1.304034665214584E1    -1.498175410811679E2    -1.320511654042281E1    -1.502033580791926E2    -3.132387125192398E1     1.125157448232276E2
 6.550000000000000E8    -3.389347947915179E1     8.566119504465395E1    -1.313444968377225E1    -1.507759935522221E2    -1.329783155104938E1    -1.513089971260794E2    -3.153816078819078E1     1.155551644512913E2
 6.600000000000000E8    -3.412331792130000E1     8.915407327210744E1    -1.323549114690463E1    -1.517490076234797E2    -1.342466770042084E1    -1.522306325939497E2    -3.162692220431746E1     1.202411375830507E2
 6.650000000000000E8    -3.434322196652217E1     9.598133988706118E1    -1.333517091619827E1    -1.526531595303364E2    -1.352285465780181E1    -1.531102757034496E2    -3.152135247200855E1     1.231290783790837E2
 6.700000000000000E8    -3.437834456719985E1     1.004653746462302E2    -1.344051733880198E1    -1.535964769994044E2    -1.364727121614501E1    -1.539936788148443E2    -3.166265122720103E1     1.268770983469802E2
 6.750000000000000E8    -3.500351081715016E1     1.070299866926506E2    -1.355876701987801E1    -1.544846865150502E2    -1.374053818687013E1    -1.550519152667076E2    -3.179003350140651E1     1.305757534668676E2
 6.800000000000000E8    -3.557092465848818E1     1.118995616498833E2    -1.366871333556812E1    -1.553033079509212E2    -1.385090399399404E1    -1.558714609146827E2    -3.169315282443810E1     1.334387665024090E2
 6.850000000000000E8    -3.628017769835788E1     1.182277944439568E2    -1.378377662397221E1    -1.561611299507580E2    -1.394687640646271E1    -1.567813367946012E2    -3.159389369462507E1     1.378535255887390E2
 6.900000000000000E8    -3.687621472206229E1     1.244685963496212E2    -1.389105645423982E1    -1.570285095559939E2    -1.405063576857687E1    -1.576019202476265E2    -3.155792729265148E1     1.396348424196852E2
 6.950000000000000E8    -3.749074854423684E1     1.280189849594396E2    -1.398531208517450E1    -1.580104681779756E2    -1.416870741790459E1    -1.585318376581156E2    -3.141635291864890E1     1.429275209592632E2
 7.000000000000000E8    -3.810540664328122E1     1.288715389606184E2    -1.410082844139059E1    -1.588812865656620E2    -1.425889085173446E1    -1.594838033652235E2    -3.137480861863617E1     1.470025006527011E2
 7.050000000000000E8    -3.774494497954260E1     1.282859729754499E2    -1.421146983591221E1    -1.599599132387718E2    -1.437985736017342E1    -1.604317450954594E2    -3.133762150582340E1     1.492955365234143E2
 7.100000000000000E8    -3.780611600534047E1     1.294539558984311E2    -1.433182771372507E1    -1.607634706153991E2    -1.450014533329768E1    -1.612018775666396E2    -3.117325277256649E1     1.509002269331870E2
 7.150000000000000E8    -3.706254692620328E1     1.327509171886756E2    -1.444580316967994E1    -1.617133049557875E2    -1.462061194674707E1    -1.620684197749926E2    -3.098487551552716E1     1.527905252955370E2
 7.200000000000000E8    -3.640163278900190E1     1.396541154057391E2    -1.455238275197027E1    -1.626157445100150E2    -1.473906563165579E1    -1.628514116586278E2    -3.086318414384982E1     1.552838381474699E2
 7.250000000000000E8    -3.536257085329137E1     1.450569057516064E2    -1.466295517944202E1    -1.635676451536061E2    -1.485803017968993E1    -1.636636175877942E2    -3.067574452759245E1     1.563932117036633E2
 7.300000000000000E8    -3.479815842673635E1     1.502108040073267E2    -1.477003789399887E1    -1.644559156971043E2    -1.495874732700464E1    -1.645511638155471E2    -3.032245064275553E1     1.571410653585591E2
 7.350000000000000E8    -3.435133523419092E1     1.554338074150977E2    -1.489459106502217E1    -1.653864237320953E2    -1.508689342839055E1    -1.653977935590133E2    -3.006344166338336E1     1.582989937774720E2
 7.400000000000000E8    -3.427101477418677E1     1.622366772674832E2    -1.500906198719170E1    -1.663472511628041E2    -1.521587592578572E1    -1.662812906585641E2    -2.980109555857576E1     1.590644754295632E2
 7.450000000000000E8    -3.396262614449174E1     1.663549582193597E2    -1.514554832205729E1    -1.671651455444073E2    -1.534566163593947E1    -1.672740576938642E2    -2.945554330844799E1     1.599612555916865E2
 7.500000000000000E8    -3.411262938273668E1     1.715095016078589E2    -1.524263727542600E1    -1.680430697621375E2    -1.548021826868952E1    -1.681917057487003E2    -2.911119786634682E1     1.623712811069228E2
 7.550000000000000E8    -3.410312853818662E1     1.711033307233587E2    -1.540071590206833E1    -1.690010716751010E2    -1.558459195228285E1    -1.689773093909241E2    -2.895185364993761E1     1.631827685297589E2
 7.600000000000000E8    -3.414122784319091E1     1.706826983597618E2    -1.553849454685934E1    -1.697775854463824E2    -1.572109748867486E1    -1.699628666405807E2    -2.869870194803431E1     1.642119128933969E2
 7.650000000000000E8    -3.386952440919503E1     1.699592721336527E2    -1.567322456381261E1    -1.706389062106503E2    -1.584950159243567E1    -1.708164386947369E2    -2.837916560109036E1     1.658716625637324E2
 7.700000000000000E8    -3.360878960026169E1     1.683505829711702E2    -1.579790472621007E1    -1.713947694207773E2    -1.599448865822937E1    -1.716357891015300E2    -2.799938575391342E1     1.666166388055087E2
 7.750000000000000E8    -3.301428061087809E1     1.671698600255806E2    -1.595564488696377E1    -1.722811036766528E2    -1.612829443065092E1    -1.726593259181178E2    -2.772372747419873E1     1.676025124208353E2
 7.800000000000000E8    -3.212100619025105E1     1.676778762846792E2    -1.609752184239092E1    -1.729916973053561E2    -1.624574045968175E1    -1.736222217706910E2    -2.761081625163363E1     1.691472406054576E2
 7.850000000000000E8    -3.140197567722521E1     1.698466479315211E2    -1.624787183856580E1    -1.738280958974849E2    -1.638873204141503E1    -1.744807663245010E2    -2.753877909738758E1     1.699155202767994E2
 7.900000000000000E8    -3.092964378820278E1     1.725806538674049E2    -1.638045472894196E1    -1.746387941658048E2    -1.653423558476436E1    -1.753980595577899E2    -2.724516566280099E1     1.710424303141519E2
 7.950000000000000E8    -3.072482071615145E1     1.748420096052357E2    -1.651948142771672E1    -1.753230855545498E2    -1.669603362550152E1    -1.764368220030378E2    -2.724688301210060E1     1.714677520066711E2
 8.000000000000000E8    -3.029167158058364E1     1.780346662706577E2    -1.666346578802795E1    -1.762993876621221E2    -1.685700803410192E1    -1.771194926248940E2    -2.716973409538500E1     1.729297906176411E2
 8.050000000000000E8    -3.034101758266933E1    -1.798428420119588E2    -1.679998582921154E1    -1.770460214498596E2    -1.702046789067328E1    -1.781626032615582E2    -2.707590884858853E1     1.732318197492866E2
 8.100000000000000E8    -3.028901097503315E1    -1.789752373803351E2    -1.694822838081463E1    -1.779105901114505E2    -1.716703267999149E1    -1.787125978514146E2    -2.692317538108183E1     1.739073737309312E2
 8.150000000000000E8    -3.036413959555588E1    -1.768721938486661E2    -1.709322759368019E1    -1.787330871746617E2    -1.732745652740773E1    -1.794575982283598E2    -2.667646708467579E1     1.733347762847222E2
 8.200000000000000E8    -3.050901049233761E1    -1.790146747145381E2    -1.726904240686591E1    -1.796713048051558E2    -1.744140652153786E1     1.794624631901643E2    -2.654964421419631E1     1.734965402543323E2
 8.250000000000000E8    -3.014156299389860E1     1.786113598993778E2    -1.743216527253970E1     1.796732800965572E2    -1.764050052666000E1     1.787518056343864E2    -2.634455694009249E1     1.738172293965885E2
 8.300000000000000E8    -2.992996006834774E1     1.772426997214607E2    -1.758369197775395E1     1.787769244032921E2    -1.778302344082022E1     1.781002303908843E2    -2.604784645041735E1     1.734616522944522E2
 8.350000000000000E8    -2.949220980905052E1     1.757668603195781E2    -1.778064077233008E1     1.779368683001013E2    -1.792813116922902E1     1.770758586548459E2    -2.587768721934568E1     1.733719981375440E2
 8.400000000000000E8    -2.896292292870119E1     1.761278131832168E2    -1.796297689479624E1     1.768313644064091E2    -1.813179404648385E1     1.765619318092337E2    -2.560188305417900E1     1.735428422086384E2
 8.450000000000000E8    -2.850757648639778E1     1.760462716931298E2    -1.814486485533082E1     1.761171507976239E2    -1.830526046706309E1     1.756953264852499E2    -2.536113421447354E1     1.738148975373728E2
 8.500000000000000E8    -2.797839392039496E1     1.789884189125705E2    -1.831612332098003E1     1.753317399990586E2    -1.849736732755626E1     1.750809025403222E2    -2.516961330880552E1     1.741664413356756E2
 8.550000000000000E8    -2.775581972660882E1    -1.797916615728868E2    -1.851388138886261E1     1.748209924801349E2    -1.868358516118281E1     1.740777251982785E2    -2.503018844172687E1     1.738481247530222E2
 8.600000000000000E8    -2.763776448330158E1    -1.782666143267240E2    -1.871123744114410E1     1.743367941163879E2    -1.887277273241866E1     1.733987575246584E2    -2.473382720894955E1     1.744882021296838E2
 8.650000000000000E8    -2.775843325242960E1    -1.771289818194168E2    -1.889429456289830E1     1.735899557640372E2    -1.907544168671736E1     1.726132551971445E2    -2.456714618908926E1     1.750040491165112E2
 8.700000000000000E8    -2.781065090142032E1    -1.764728726128575E2    -1.906865041103711E1     1.727446822185999E2    -1.924060566856055E1     1.718756528456827E2    -2.442948948829762E1     1.755139870808224E2
 8.750000000000000E8    -2.785588380038440E1    -1.772246369947730E2    -1.929080433587182E1     1.720805693011421E2    -1.942574444375050E1     1.714274087917724E2    -2.432795607111073E1     1.758203128365086E2
 8.800000000000000E8    -2.785451560499583E1    -1.778055931793248E2    -1.947172956585943E1     1.714143176868363E2    -1.964372461508728E1     1.703622411560761E2    -2.420091597317666E1     1.763957720431439E2
 8.850000000000000E8    -2.783043250103046E1     1.793520288833120E2    -1.966253197628239E1     1.705578333853596E2    -1.983092825233604E1     1.698395473584548E2    -2.415016563994157E1     1.765201341274549E2
 8.900000000000000E8    -2.764314063163080E1     1.777333427952856E2    -1.989109871502722E1     1.697280442304506E2    -2.008703287305659E1     1.691281786341426E2    -2.405510306625235E1     1.766853082051783E2
 8.950000000000000E8    -2.721636591516685E1     1.769090598611356E2    -2.014278615762827E1     1.691730494461184E2    -2.034058530069331E1     1.685609601156222E2    -2.403021989913312E1     1.762360955234910E2
 9.000000000000000E8    -2.682647278989766E1     1.759416890443507E2    -2.034236406624386E1     1.686796222779326E2    -2.056095390900025E1     1.678111860763820E2    -2.394870702714876E1     1.767679728491446E2
 9.050000000000000E8    -2.645817071210015E1     1.774926662653281E2    -2.057346976917656E1     1.679908345756404E2    -2.075378405407361E1     1.673317172185830E2    -2.390377662433997E1     1.758690186111738E2
 9.100000000000000E8    -2.618928738365995E1     1.775769885385429E2    -2.085290831581905E1     1.676170054184754E2    -2.100570850957481E1     1.666596938547943E2    -2.381892112999273E1     1.748649970229347E2
 9.150000000000000E8    -2.598923133747891E1     1.788228212813655E2    -2.109443268209750E1     1.670087228652302E2    -2.123465576004712E1     1.662580681721426E2    -2.374553050292148E1     1.751340932325649E2
 9.200000000000000E8    -2.590765736807637E1     1.797844263394691E2    -2.132032042259470E1     1.664534755294178E2    -2.153317054506256E1     1.651305760555899E2    -2.362251655549053E1     1.746409686235140E2
 9.250000000000000E8    -2.601831904645481E1    -1.788061639051492E2    -2.154248161506565E1     1.660879664918749E2    -2.176139864990401E1     1.646481748412053E2    -2.347451019853190E1     1.738255639600340E2
 9.300000000000000E8    -2.613839752350124E1    -1.789010821171417E2    -2.185909906004891E1     1.657818706901347E2    -2.201752925434004E1     1.644819855208033E2    -2.338651316793037E1     1.737634889804361E2
 9.350000000000000E8    -2.623908214318535E1     1.799754114817609E2    -2.210085443639077E1     1.654619094303706E2    -2.226453938436716E1     1.635261526317798E2    -2.316584587373043E1     1.735788802362811E2
 9.400000000000000E8    -2.620774366892361E1     1.798551891939262E2    -2.243836685995412E1     1.647332811345084E2    -2.257412538930013E1     1.636073902932484E2    -2.304844495988683E1     1.735215631703734E2
 9.450000000000000E8    -2.617828617348645E1     1.776080076920329E2    -2.265267966524313E1     1.645222792227804E2    -2.290429414199326E1     1.630841046934035E2    -2.293186254731863E1     1.733105233828203E2
 9.500000000000000E8    -2.583726296885619E1     1.758020623619887E2    -2.300740860305579E1     1.641443088204861E2    -2.315479676001223E1     1.627234712839662E2    -2.278670894725573E1     1.730594760947559E2
