#  HZ   S   DB   R     50.00 
! Rohde & Schwarz Vector Network Analyzer 
! Rohde-Schwarz,ZNC3-2Port,1311600412101323,1.94
! Created: UTC 6/24/2025, 10:55:28 PM
!The following Port Impedance Renormalization has been used when saving the data.
!PortZ  Port1:50+j0    Port2:50+j0
! freq[Hz]                db:S11                  ang:S11                 db:S21                  ang:S21                 db:S12                  ang:S12                 db:S22                  ang:S22
 5.000000000000000E8    -1.139831911523642E1     1.285942770704602E2    -3.302135557602261      -1.121954872231353E2    -3.560128457252295      -1.127600121692436E2    -2.280610751726536E1     8.086997702845562E1
 5.050000000000000E8    -1.141960154417338E1     1.280753507918514E2    -3.289988032098965      -1.133166309799438E2    -3.543640589467716      -1.136568323157833E2    -2.294620071078292E1     8.050796148348157E1
 5.100000000000000E8    -1.143843558242297E1     1.276371362727452E2    -3.285869921041502      -1.144830205302669E2    -3.519306627338496      -1.146900569405615E2    -2.326542543463153E1     8.049373539167293E1
 5.150000000000000E8    -1.147668145035009E1     1.272618079135455E2    -3.278076363644768      -1.157289917760495E2    -3.486488810426011      -1.159080176125511E2    -2.339220388859429E1     8.005015597764492E1
 5.200000000000000E8    -1.153682054110135E1     1.269208178235077E2    -3.278752738458519      -1.168679333522409E2    -3.468469828595326      -1.172098379018594E2    -2.365111193893602E1     7.993637113653040E1
 5.250000000000000E8    -1.158257246156976E1     1.264886349944091E2    -3.292561225926122      -1.180291765329025E2    -3.474021126425675      -1.184829334649657E2    -2.388510097802805E1     7.955843421473881E1
 5.300000000000000E8    -1.164476571077389E1     1.261796256528993E2    -3.287852599396403      -1.191652856656915E2    -3.500563697598540      -1.196485360859871E2    -2.407996097571725E1     8.017547316949107E1
 5.350000000000000E8    -1.168999496517705E1     1.257056681056898E2    -3.298699742111122      -1.202552237818489E2    -3.519726466130841      -1.207261677745691E2    -2.427789141579276E1     8.048265923623255E1
 5.400000000000000E8    -1.174442818579176E1     1.253613625694790E2    -3.295860317500362      -1.213808898104868E2    -3.526784741964622      -1.217035584954102E2    -2.449071318057599E1     8.070265279156938E1
 5.450000000000000E8    -1.178719273255575E1     1.248910163439732E2    -3.282837581300476      -1.224658588971259E2    -3.510475342414421      -1.225866339157218E2    -2.460769289858000E1     8.149651008200397E1
 5.500000000000000E8    -1.182549566736910E1     1.244776826198941E2    -3.279595612655970      -1.235083294069541E2    -3.475905698168149      -1.236131589200267E2    -2.492108172764146E1     8.160856321089398E1
 5.550000000000000E8    -1.187103244410674E1     1.238259575792307E2    -3.276552708431652      -1.245789228006113E2    -3.427132443420192      -1.248581813092338E2    -2.504272234478002E1     8.196134330211552E1
 5.600000000000000E8    -1.187820696012772E1     1.233439773932664E2    -3.268876656310825      -1.257013047867940E2    -3.393171664264823      -1.261870774154427E2    -2.532594080956763E1     8.281614564514644E1
 5.650000000000000E8    -1.195826213340766E1     1.228305229716004E2    -3.257437911054756      -1.268698594627099E2    -3.389464555877263      -1.277889905886825E2    -2.554315794586648E1     8.267847605061867E1
 5.700000000000000E8    -1.197690764196335E1     1.224566742731356E2    -3.255100965099568      -1.280793032684187E2    -3.408683109674568      -1.291755353393722E2    -2.575218692103824E1     8.262593002900869E1
 5.750000000000000E8    -1.205267519727456E1     1.219185977950493E2    -3.247734154783793      -1.292578907201021E2    -3.464265256789274      -1.304407040541342E2    -2.604676598918289E1     8.373216558559322E1
 5.800000000000000E8    -1.210578425395023E1     1.214147308645087E2    -3.255851892070400      -1.304265759468021E2    -3.522187099894323      -1.314703984112089E2    -2.638226288577826E1     8.406062339939970E1
 5.850000000000000E8    -1.215066901123596E1     1.208816044082307E2    -3.257788394749535      -1.316569656937962E2    -3.552617730752671      -1.322297543837458E2    -2.672704454665327E1     8.492868438251948E1
 5.900000000000000E8    -1.221984212235648E1     1.202865349368864E2    -3.257908527839486      -1.328121678888161E2    -3.551653169740066      -1.328322225278523E2    -2.697394108815162E1     8.492029537434404E1
 5.950000000000000E8    -1.227126725626557E1     1.198953382706014E2    -3.270168598426031      -1.340654661075115E2    -3.488809281433034      -1.335617832639539E2    -2.721535913341942E1     8.606807058128538E1
 6.000000000000000E8    -1.234308991859156E1     1.194195292690836E2    -3.272937830615338      -1.352072190871783E2    -3.414936392602347      -1.345520318295811E2    -2.748520014100318E1     8.642197112907159E1
 6.050000000000000E8    -1.237850568779574E1     1.192102244105831E2    -3.275129623898139      -1.363163720327899E2    -3.333323395605032      -1.358746637534082E2    -2.769313570449444E1     8.681694497856124E1
 6.100000000000000E8    -1.238895790101170E1     1.187163576450832E2    -3.266342753128204      -1.373555673317604E2    -3.283704081115225      -1.375541329257410E2    -2.788685891555620E1     8.781749788946679E1
 6.150000000000000E8    -1.244291831705644E1     1.184191214117487E2    -3.265940574149505      -1.384603839027735E2    -3.282433158823408      -1.393150914170745E2    -2.821973732277785E1     8.770211981151081E1
 6.200000000000000E8    -1.253308298541661E1     1.178295134981178E2    -3.251446327312068      -1.396436730925125E2    -3.349374806873237      -1.409172598139153E2    -2.851682735507700E1     8.990344159397692E1
 6.250000000000000E8    -1.259835781604490E1     1.176617698623128E2    -3.232481081773264      -1.408382832227601E2    -3.437139983356106      -1.422225363852638E2    -2.879633013397958E1     8.934226417293887E1
 6.300000000000000E8    -1.269813022144479E1     1.172103114701818E2    -3.218264859352433      -1.420789281193183E2    -3.530935777863719      -1.430862859209682E2    -2.901198392897960E1     9.044380005594528E1
 6.350000000000000E8    -1.277682104877220E1     1.167634930028636E2    -3.208643221019824      -1.432378085318270E2    -3.581860486115260      -1.436441221732649E2    -2.918663891055642E1     9.161672016561289E1
 6.400000000000000E8    -1.282454038981015E1     1.164234187323713E2    -3.202370339335042      -1.444654308627251E2    -3.577759741143618      -1.441350072832219E2    -2.928947934373340E1     9.310957403120074E1
 6.450000000000000E8    -1.290606352790844E1     1.153788410236602E2    -3.202614437025166      -1.456519332516739E2    -3.505408775091492      -1.446938273870630E2    -2.944950846186742E1     9.396406419844465E1
 6.500000000000000E8    -1.292915657302913E1     1.145975272792229E2    -3.202495692721979      -1.468821720995128E2    -3.387647259795179      -1.455867962932825E2    -2.963186725637740E1     9.626057116752737E1
 6.550000000000000E8    -1.300234169847565E1     1.139132548342862E2    -3.205033827206237      -1.480611852875792E2    -3.283448661186224      -1.469476342162777E2    -3.001655766221086E1     9.818150617989556E1
 6.600000000000000E8    -1.307197728137677E1     1.136475792635791E2    -3.220831091046669      -1.492182602408960E2    -3.223775198092249      -1.487668080471440E2    -3.003342190893147E1     1.006598296195254E2
 6.650000000000000E8    -1.310286068514361E1     1.136170510650163E2    -3.222088654718576      -1.503185282936152E2    -3.224562938949984      -1.506603561892448E2    -3.013927272878032E1     1.018073490215198E2
 6.700000000000000E8    -1.313581606692989E1     1.133760118114921E2    -3.220528068394937      -1.515082843466855E2    -3.301230497847310      -1.524691811971939E2    -3.057580883738438E1     1.040461320380959E2
 6.750000000000000E8    -1.319494290163127E1     1.131500662190286E2    -3.224028361014154      -1.525880164466860E2    -3.408853510257287      -1.539256911049337E2    -3.092515240104300E1     1.065578772052809E2
 6.800000000000000E8    -1.329400769874966E1     1.127782699434438E2    -3.220636047437590      -1.536304596417422E2    -3.524876232052718      -1.548176849072237E2    -3.107894303975146E1     1.081035184050162E2
 6.850000000000000E8    -1.342636998470861E1     1.126035148880828E2    -3.216039356454976      -1.547419289028881E2    -3.594740420740243      -1.553071202153761E2    -3.128560068418251E1     1.116380350289975E2
 6.900000000000000E8    -1.351352261698037E1     1.123711929006120E2    -3.209016111534053      -1.558211307149765E2    -3.590906946310440      -1.556551987175190E2    -3.154763406824708E1     1.141682047488818E2
 6.950000000000000E8    -1.361101643853723E1     1.121119505173343E2    -3.193965585412691      -1.569676428555112E2    -3.533249795104925      -1.561135225995097E2    -3.149753740808840E1     1.159588172958788E2
 7.000000000000000E8    -1.368187804177915E1     1.111988089438618E2    -3.195958144672764      -1.582026333154167E2    -3.401335807034737      -1.569275534370201E2    -3.181480020042225E1     1.188491011989554E2
 7.050000000000000E8    -1.372382181582946E1     1.100184857754057E2    -3.190470156948436      -1.594095872032748E2    -3.269306662577365      -1.582384248488880E2    -3.182762643314037E1     1.207271021294254E2
 7.100000000000000E8    -1.381290456490110E1     1.092847667044372E2    -3.180653781097126      -1.606039049953043E2    -3.200177433711100      -1.599841908868268E2    -3.176634687964433E1     1.221262455637633E2
 7.150000000000000E8    -1.388246021297142E1     1.087658437829735E2    -3.181703091554885      -1.618716508485380E2    -3.181442922119390      -1.618944997459964E2    -3.208291738043623E1     1.236281078121520E2
 7.200000000000000E8    -1.397246644363873E1     1.085392067272098E2    -3.184628693874789      -1.631040648000741E2    -3.238100314466891      -1.636934909497118E2    -3.213059463166649E1     1.272136599392845E2
 7.250000000000000E8    -1.402392071745706E1     1.086907969660702E2    -3.183499495289620      -1.643239432975706E2    -3.347103212035524      -1.650953242656477E2    -3.213391371330288E1     1.280792262949858E2
 7.300000000000000E8    -1.403656568114516E1     1.085925991867488E2    -3.179247422635943      -1.654875661973868E2    -3.461802925217761      -1.661377276798922E2    -3.197882577826748E1     1.295912603824474E2
 7.350000000000000E8    -1.417051340126010E1     1.084739569956752E2    -3.183223201106050      -1.666365868577204E2    -3.538752751680063      -1.667102244462128E2    -3.182701715400771E1     1.304136007000543E2
 7.400000000000000E8    -1.430812471044635E1     1.081971066974989E2    -3.179663026858941      -1.677184964582095E2    -3.553958377990380      -1.671466951864411E2    -3.166728269934852E1     1.335054611826975E2
 7.450000000000000E8    -1.445374567795381E1     1.081138268868738E2    -3.175788872141534      -1.688748132711059E2    -3.506150689228504      -1.676942965944411E2    -3.145965739755899E1     1.337618460034185E2
 7.500000000000000E8    -1.461510281184608E1     1.077993853672442E2    -3.175199972273526      -1.700163438775507E2    -3.416544242211711      -1.685513237866635E2    -3.129592846399708E1     1.374025134684068E2
 7.550000000000000E8    -1.468629833843454E1     1.070790944157187E2    -3.167119986855335      -1.710310133104534E2    -3.306145829167626      -1.697847305429854E2    -3.113315536067882E1     1.392127194068212E2
 7.600000000000000E8    -1.482068125504256E1     1.062623942350285E2    -3.158279965751926      -1.722384636222519E2    -3.232720676478396      -1.713254442862543E2    -3.100434113390476E1     1.412594512516567E2
 7.650000000000000E8    -1.486795020554219E1     1.054781699951088E2    -3.164004586993881      -1.733549386146155E2    -3.196603406741041      -1.731060116031246E2    -3.076499246131217E1     1.437123489314778E2
 7.700000000000000E8    -1.491593831703124E1     1.047032074351788E2    -3.179400900794017      -1.745251336989789E2    -3.210233872757751      -1.748945834542654E2    -3.071318973506143E1     1.447251253961853E2
 7.750000000000000E8    -1.497430367228778E1     1.045515624029261E2    -3.171703626606059      -1.756368817843685E2    -3.276195638362915      -1.764612022334312E2    -3.045458791075406E1     1.471329521143626E2
 7.800000000000000E8    -1.502670751047666E1     1.046837506683572E2    -3.175351630368700      -1.767436363582725E2    -3.364000547692936      -1.778036461746893E2    -3.051209140590220E1     1.492016309989523E2
 7.850000000000000E8    -1.506639097142075E1     1.047842316424205E2    -3.177431227823520      -1.778237303478375E2    -3.438899599010286      -1.787516530193219E2    -3.056461697963297E1     1.509239921463172E2
 7.900000000000000E8    -1.517145251550423E1     1.048847159665050E2    -3.177330598265581      -1.788524681151037E2    -3.468602104397728      -1.794877318513143E2    -3.035060181204094E1     1.536221601011959E2
 7.950000000000000E8    -1.531114201789817E1     1.045908308488107E2    -3.173090035766497      -1.799501143570091E2    -3.457442478649083       1.798751395307927E2    -3.035305259723414E1     1.535256651307226E2
 8.000000000000000E8    -1.546663785049900E1     1.045698081455008E2    -3.161073685654408       1.788544329067391E2    -3.397792340462462       1.790797090757894E2    -3.043094330359669E1     1.554089845762067E2
 8.050000000000000E8    -1.570528848796385E1     1.039417243413617E2    -3.151481872969252       1.777428167111458E2    -3.331875395113891       1.779730908190523E2    -3.039613212034224E1     1.562586766154008E2
 8.100000000000000E8    -1.582192810915067E1     1.033741455327674E2    -3.147845398796563       1.766205156990685E2    -3.270388410920027       1.766412684112381E2    -3.034150140135714E1     1.573479684918711E2
 8.150000000000000E8    -1.600361550872289E1     1.029238171586574E2    -3.138593209773574       1.754212007633355E2    -3.244283157987914       1.750882057079294E2    -3.003598164790525E1     1.568922904925621E2
 8.200000000000000E8    -1.607416874904630E1     1.021237250540796E2    -3.132035879375005       1.742935830726759E2    -3.242776400765180       1.735327681458673E2    -3.000239925595913E1     1.572774022344390E2
 8.250000000000000E8    -1.611579624423597E1     1.014564581338365E2    -3.135233417875944       1.730497323226080E2    -3.275358848178932       1.721998993746146E2    -2.986523293291673E1     1.579343609992916E2
 8.300000000000000E8    -1.621119506659507E1     1.008786843774511E2    -3.133122172497830       1.718670835941385E2    -3.326929489521397       1.709145811375932E2    -2.959914064684777E1     1.569605822989136E2
 8.350000000000000E8    -1.626518731123619E1     1.006422940239967E2    -3.137730632971221       1.706459804857330E2    -3.359256361468924       1.698884452300053E2    -2.945582385210635E1     1.588121988378214E2
 8.400000000000000E8    -1.634816752541542E1     1.008673804902932E2    -3.138098365542152       1.694310839578148E2    -3.383940093159050       1.689483892996602E2    -2.922626808817898E1     1.590257022837886E2
 8.450000000000000E8    -1.644748417825560E1     1.009662777683436E2    -3.144829681126435       1.682814393142758E2    -3.382905156487854       1.680561276159143E2    -2.894332027124177E1     1.602639043916679E2
 8.500000000000000E8    -1.660066189244403E1     1.013781893946408E2    -3.151796110793782       1.670952690615536E2    -3.366716624156554       1.671738164088427E2    -2.880131888900937E1     1.619897280430688E2
 8.550000000000000E8    -1.678154655697206E1     1.015620411040185E2    -3.150868377939172       1.660364962689523E2    -3.333202796098957       1.659878248458653E2    -2.856682637239123E1     1.618712994234539E2
 8.600000000000000E8    -1.699105335169453E1     1.011676239465694E2    -3.160213627799833       1.650090056050854E2    -3.298789991966000       1.647377589076214E2    -2.832064051105281E1     1.637540994405291E2
 8.650000000000000E8    -1.724596473400663E1     1.006782521461822E2    -3.147046179600334       1.638785300288369E2    -3.277053928457176       1.634242390599037E2    -2.814624835266357E1     1.639254458694504E2
 8.700000000000000E8    -1.745209775493594E1     9.987145915884754E1    -3.148936961130147       1.626813094317289E2    -3.270585458648141       1.621538356673648E2    -2.807339320863090E1     1.656655662163599E2
 8.750000000000000E8    -1.761692768026289E1     9.933135863482148E1    -3.139567166497352       1.615960468522385E2    -3.289223447891659       1.608963338927947E2    -2.789858711524863E1     1.663238494563023E2
 8.800000000000000E8    -1.775989832597789E1     9.866059492572705E1    -3.138777394012285       1.603421447286989E2    -3.305247155385436       1.597630713047852E2    -2.791478702045706E1     1.676426675651745E2
 8.850000000000000E8    -1.778399725733402E1     9.799391462871193E1    -3.130759494618474       1.591780266055797E2    -3.308061513251508       1.586642848598666E2    -2.798060267745724E1     1.681716236866255E2
 8.900000000000000E8    -1.787440177634413E1     9.808546920348111E1    -3.130074120676431       1.580114944426963E2    -3.309766622098631       1.575453140473518E2    -2.790824264562144E1     1.690594043696503E2
 8.950000000000000E8    -1.800325532648995E1     9.811258153407758E1    -3.119261005170090       1.568105372029905E2    -3.316200563895641       1.563704448643510E2    -2.795262406212320E1     1.691483767958433E2
 9.000000000000000E8    -1.809930290316250E1     9.821200756392442E1    -3.113248976265170       1.556664191408336E2    -3.304980294020683       1.552529067180660E2    -2.784113634652754E1     1.708419166222846E2
 9.050000000000000E8    -1.826094274610162E1     9.854489562152929E1    -3.113359695166857       1.544776759967956E2    -3.301563110775090       1.540275899765898E2    -2.786540672276254E1     1.699128588774241E2
 9.100000000000000E8    -1.845692673702974E1     9.889302054847980E1    -3.110094661951485       1.533807792161738E2    -3.297928328979833       1.528290740067830E2    -2.774393027648077E1     1.699438482210770E2
 9.150000000000000E8    -1.874388204431108E1     9.948715518150566E1    -3.112022139458797       1.522666358075707E2    -3.293545260547290       1.515948787600106E2    -2.761041100395021E1     1.698066587766822E2
 9.200000000000000E8    -1.906349392101031E1     9.932094661321675E1    -3.111514341491504       1.511595284588725E2    -3.295410706303910       1.503523410243422E2    -2.753990781719553E1     1.702189862738540E2
 9.250000000000000E8    -1.933896755591081E1     9.917749993306425E1    -3.107329725857964       1.500581660589353E2    -3.287808875510756       1.491742500670134E2    -2.737111887996763E1     1.693683227359574E2
 9.300000000000000E8    -1.959896995828891E1     9.829341893591536E1    -3.100847829832413       1.489090249302189E2    -3.282026291948416       1.479546736959755E2    -2.727014805367281E1     1.693213953701583E2
 9.350000000000000E8    -1.969349220381289E1     9.789553581964701E1    -3.095515219208752       1.477771647759487E2    -3.267931088165966       1.467216039450836E2    -2.694241957795622E1     1.697446217460554E2
 9.400000000000000E8    -1.993291185987209E1     9.753939375471327E1    -3.104064240177631       1.466986725424837E2    -3.271078616104183       1.455035356526492E2    -2.691189076450931E1     1.699641902452431E2
 9.450000000000000E8    -2.004242555648272E1     9.686552084277518E1    -3.089234895739522       1.454747253128003E2    -3.265514282379591       1.442723190773137E2    -2.669503397862229E1     1.708940554110718E2
 9.500000000000000E8    -2.008758418936220E1     9.733220528302390E1    -3.089224318645095       1.442782394941653E2    -3.270937699157412       1.429551143896237E2    -2.654267656060067E1     1.715019128994931E2
