! Created Sat Jul 26 13:04:50 2025
# hz S ma R 50
! 3 Port Network Data from SP1.SP block
! freq  magS11  angS11  magS12  angS12  magS13  angS13  
!       magS21  angS21  
!       magS22  angS22  magS23  angS23  
!       magS31  angS31  magS32  angS32  
!       magS33  angS33  
!     
         500000000       0.240337351         99.8651806        0.684917199        -79.0637847        0.684917199        -79.0637847
                      0.684917199        -79.0637847       0.0587441624         36.6930308        0.272551181        -89.1875472
                      0.684917199        -79.0637847        0.272551181        -89.1875472       0.0587441624         36.6930308

         510000000       0.236706198         98.1712311        0.685537736        -80.6779633        0.685537736        -80.6779633
                      0.685537736        -80.6779633       0.0553490156          34.745504        0.266676248        -90.3302727
                      0.685537736        -80.6779633        0.266676248        -90.3302727       0.0553490156          34.745504

         520000000       0.233010678          96.470494        0.686159298         -82.293831        0.686159298         -82.293831
                      0.686159298         -82.293831       0.0520549522         32.8143512        0.260855048        -91.4648596
                      0.686159298         -82.293831        0.260855048        -91.4648596       0.0520549522         32.8143512

         530000000       0.229251439         94.7626495        0.686781246        -83.9113916        0.686781246        -83.9113916
                      0.686781246        -83.9113916       0.0488600233         30.8995109        0.255083336        -92.5912366
                      0.686781246        -83.9113916        0.255083336        -92.5912366       0.0488600233         30.8995109

         540000000        0.22542916         93.0473531        0.687402937        -85.5306471        0.687402937        -85.5306471
                      0.687402937        -85.5306471       0.0457623779          29.001049        0.249357136        -93.7092597
                      0.687402937        -85.5306471        0.249357136        -93.7092597       0.0457623779          29.001049

         550000000       0.221544562         91.3242333         0.68802372         -87.151598         0.68802372         -87.151598
                       0.68802372         -87.151598       0.0427602598         27.1191775        0.243672734        -94.8187114
                       0.68802372         -87.151598        0.243672734        -94.8187114       0.0427602598         27.1191775

         560000000       0.217598405         89.5928881        0.688642943         -88.774243        0.688642943         -88.774243
                      0.688642943         -88.774243        0.039852004         25.2542807        0.238026668         -95.919298
                      0.688642943         -88.774243        0.238026668         -95.919298        0.039852004         25.2542807

         570000000       0.213591493         87.8528811        0.689259948        -90.3985788        0.689259948        -90.3985788
                      0.689259948        -90.3985788       0.0370360342         23.4069495        0.232415726        -97.0106465
                      0.689259948        -90.3985788        0.232415726        -97.0106465       0.0370360342         23.4069495

         580000000       0.209524669         86.1037378        0.689874073        -92.0246006        0.689874073        -92.0246006
                      0.689874073        -92.0246006       0.0343108584         21.5780279        0.226836932        -98.0923008
                      0.689874073        -92.0246006        0.226836932        -98.0923008       0.0343108584         21.5780279

         590000000       0.205398825         84.3449398        0.690484657        -93.6523018        0.690484657        -93.6523018
                      0.690484657        -93.6523018       0.0316750655         19.7686779        0.221287547        -99.1637164
                      0.690484657        -93.6523018        0.221287547        -99.1637164       0.0316750655         19.7686779

         600000000       0.201214897           82.57592        0.691091036        -95.2816737        0.691091036        -95.2816737
                      0.691091036        -95.2816737       0.0291273222         17.9804684        0.215765058        -100.224255
                      0.691091036        -95.2816737        0.215765058        -100.224255       0.0291273222         17.9804684

         610000000       0.196973871         80.7960557        0.691692543        -96.9127061        0.691692543        -96.9127061
                      0.691692543        -96.9127061       0.0266663696         16.2155023        0.210267174        -101.273175
                      0.691692543        -96.9127061        0.210267174        -101.273175       0.0266663696         16.2155023

         620000000       0.192676786         79.0046613        0.692288514        -98.5453869        0.692288514        -98.5453869
                      0.692288514        -98.5453869       0.0242910198         14.4765991        0.204791823        -102.309626
                      0.692288514        -98.5453869        0.204791823        -102.309626       0.0242910198         14.4765991

         630000000       0.188324731         77.2009793        0.692878285        -100.179702        0.692878285        -100.179702
                      0.692878285        -100.179702       0.0220001539         12.7675652        0.199337145        -103.332636
                      0.692878285        -100.179702        0.199337145        -103.332636       0.0220001539         12.7675652

         640000000       0.183918854         75.3841704        0.693461193        -101.815636        0.693461193        -101.815636
                      0.693461193        -101.815636         0.01979272         11.0936043        0.193901491        -104.341098
                      0.693461193        -101.815636        0.193901491        -104.341098         0.01979272         11.0936043

         650000000        0.17946036         73.5533017         0.69403658        -103.453171         0.69403658        -103.453171
                       0.69403658        -103.453171       0.0176677324         9.46195944        0.188483421        -105.333757
                       0.69403658        -103.453171        0.188483421        -105.333757       0.0176677324         9.46195944

         660000000        0.17495052         71.7073326        0.694603787        -105.092287        0.694603787        -105.092287
                      0.694603787        -105.092287       0.0156242735         7.88295711        0.183081704        -106.309191
                      0.694603787        -105.092287        0.183081704        -106.309191       0.0156242735         7.88295711

         670000000       0.170390668         69.8450986        0.695162163        -106.732964        0.695162163        -106.732964
                      0.695162163        -106.732964       0.0136614988         6.37177787        0.177695314         -107.26579
                      0.695162163        -106.732964        0.177695314         -107.26579       0.0136614988         6.37177787

         680000000       0.165782212         67.9652916        0.695711063        -108.375178        0.695711063        -108.375178
                      0.695711063        -108.375178       0.0117786488          4.9516235        0.172323439        -108.201734
                      0.695711063        -108.375178        0.172323439        -108.201734       0.0117786488          4.9516235

         690000000       0.161126635         66.0664374        0.696249844        -110.018905        0.696249844        -110.018905
                      0.696249844        -110.018905      0.00997507587         3.65975604         0.16696548        -109.114956
                      0.696249844        -110.018905         0.16696548        -109.114956      0.00997507587         3.65975604

         700000000       0.156425506         64.1468676        0.696777875        -111.664117        0.696777875        -111.664117
                      0.696777875        -111.664117      0.00825030241         2.55998248        0.161621058        -110.003115
                      0.696777875        -111.664117        0.161621058        -110.003115      0.00825030241         2.55998248

         710000000       0.151680482          62.204687        0.697294531        -113.310786        0.697294531        -113.310786
                      0.697294531        -113.310786      0.00660415974         1.77132056        0.156290026        -110.863547
                      0.697294531        -113.310786        0.156290026        -110.863547      0.00660415974         1.77132056

         720000000       0.146893323         60.2377332        0.697799195        -114.958883        0.697799195        -114.958883
                      0.697799195        -114.958883      0.00503716219         1.54389656        0.150972479         -111.69322
                      0.697799195        -114.958883        0.150972479         -111.69322      0.00503716219         1.54389656

         730000000       0.142065897         58.2435288        0.698291261        -116.608374        0.698291261        -116.608374
                      0.698291261        -116.608374      0.00355173951         2.50599776        0.145668769        -112.488667
                      0.698291261        -116.608374        0.145668769        -112.488667      0.00355173951         2.50599776

         740000000         0.1372002         56.2192214        0.698770137        -118.259227        0.698770137        -118.259227
                      0.698770137        -118.259227      0.00215792696         6.78474396         0.14037953        -113.245916
                      0.698770137        -118.259227         0.14037953        -113.245916      0.00215792696         6.78474396

         750000000       0.132298369         54.1615117        0.699235237        -119.911406        0.699235237        -119.911406
                      0.699235237        -119.911406     0.000925302461         27.4617563        0.135105702        -113.960398
                      0.699235237        -119.911406        0.135105702        -113.960398     0.000925302461         27.4617563

         760000000       0.127362705         52.0665629        0.699685995        -121.564875        0.699685995        -121.564875
                      0.699685995        -121.564875     0.000782037094         122.066594        0.129848566        -114.626838
                      0.699685995        -121.564875        0.129848566        -114.626838     0.000782037094         122.066594

         770000000       0.122395697         49.9298887        0.700121853        -123.219593        0.700121853        -123.219593
                      0.700121853        -123.219593      0.00183305428         148.596182        0.124609794        -115.239124
                      0.700121853        -123.219593        0.124609794        -115.239124      0.00183305428         148.596182

         780000000       0.117400059         47.7462128        0.700542272        -124.875523        0.700542272        -124.875523
                      0.700542272        -124.875523      0.00292864631         153.730262        0.119391497        -115.790137
                      0.700542272        -124.875523        0.119391497        -115.790137      0.00292864631         153.730262

         790000000        0.11237877         45.5092902        0.700946727         -126.53262        0.700946727         -126.53262
                      0.700946727         -126.53262      0.00397171088         155.003979        0.114196307        -116.271551
                      0.700946727         -126.53262        0.114196307        -116.271551      0.00397171088         155.003979

         800000000        0.10733513           43.21168         0.70133471        -128.190844         0.70133471        -128.190844
                       0.70133471        -128.190844      0.00494984317         154.976103        0.109027465         -116.67358
                       0.70133471        -128.190844        0.109027465         -116.67358      0.00494984317         154.976103

         810000000       0.102272833          40.844453        0.701705732        -129.850148        0.701705732        -129.850148
                      0.701705732        -129.850148      0.00586001805         154.364598        0.103888941        -116.984662
                      0.701705732        -129.850148        0.103888941        -116.984662      0.00586001805         154.364598

         820000000      0.0971960592         38.3968112        0.702059321        -131.510487        0.702059321        -131.510487
                      0.702059321        -131.510487      0.00670140806         153.447917       0.0987855933         -117.19107
                      0.702059321        -131.510487       0.0987855933         -117.19107      0.00670140806         153.447917

         830000000      0.0921096024         35.8555892        0.702395026        -133.171813        0.702395026        -133.171813
                      0.702395026        -133.171813      0.00747391876         152.356952       0.0937233664        -117.276422
                      0.702395026        -133.171813       0.0937233664        -117.276422      0.00747391876         152.356952

         840000000      0.0870190383         33.2045941        0.702712415        -134.834078        0.702712415        -134.834078
                      0.702712415        -134.834078      0.00817775884         151.161868       0.0887095557        -117.221064
                      0.702712415        -134.834078       0.0887095557        -117.221064      0.00817775884         151.161868

         850000000      0.0819309553         30.4237222        0.703011079        -136.497232        0.703011079        -136.497232
                      0.703011079        -136.497232      0.00881328396          149.90423       0.0837531526        -117.001314
                      0.703011079        -136.497232       0.0837531526        -117.001314      0.00881328396          149.90423

         860000000      0.0768532732         27.4877675         0.70329063        -138.161223         0.70329063        -138.161223
                       0.70329063        -138.161223      0.00938093212           148.6108       0.0788652987         -116.58852
                       0.70329063        -138.161223       0.0788652987         -116.58852      0.00938093212           148.6108

         870000000      0.0717956893         24.3647964        0.703550701           -139.826        0.703550701           -139.826
                      0.703550701           -139.826      0.00988119513         147.300179       0.0740598871        -115.947914
                      0.703550701           -139.826       0.0740598871        -115.947914      0.00988119513         147.300179

         880000000      0.0667703129         21.0139197        0.703790953         -141.49151        0.703790953         -141.49151
                      0.703790953         -141.49151       0.0103146063         145.986287       0.0693543548        -115.037277
                      0.703790953         -141.49151       0.0693543548        -115.037277       0.0103146063         145.986287

         890000000      0.0617925804         17.3822212        0.704011066        -143.157697        0.704011066        -143.157697
                      0.704011066        -143.157697       0.0106817364         144.680345       0.0647707261        -113.805448
                      0.704011066        -143.157697       0.0647707261        -113.805448       0.0106817364         144.680345

         900000000      0.0568825937         13.4005337        0.704210749        -144.824507        0.704210749        -144.824507
                      0.704210749        -144.824507       0.0109831944         143.392093       0.0603369665        -112.190873
                      0.704210749        -144.824507       0.0603369665        -112.190873       0.0109831944         143.392093

         910000000      0.0520670992         8.97770885        0.704389734        -146.491885        0.704389734        -146.491885
                      0.704389734        -146.491885       0.0112196323         142.130604       0.0560886979        -110.120622
                      0.704389734        -146.491885       0.0560886979        -110.120622       0.0112196323         142.130604

         920000000       0.047382435         3.99312722         0.70454778        -148.159772         0.70454778        -148.159772
                       0.70454778        -148.159772       0.0113917517         140.904876       0.0520712653        -107.510751
                       0.70454778        -148.159772       0.0520712653        -107.510751       0.0113917517         140.904876

         930000000      0.0428789019        -1.71222435        0.704684671        -149.828113        0.704684671        -149.828113
                      0.704684671        -149.828113       0.0115003153         139.724335       0.0483419926        -104.269659
                      0.704684671        -149.828113       0.0483419926        -104.269659       0.0115003153         139.724335

         940000000      0.0386270896         -8.3438757        0.704800219        -151.496849        0.704800219        -151.496849
                      0.704800219        -151.496849       0.0115461603         138.599292        0.044972132        -100.307114
                      0.704800219        -151.496849        0.044972132        -100.307114       0.0115461603         138.599292

         950000000      0.0347264093        -16.1538892        0.704894264        -153.165922        0.704894264        -153.165922
                      0.704894264        -153.165922       0.0115302184         137.541435       0.0420474209        -95.5523827
                      0.704894264        -153.165922       0.0420474209        -95.5523827       0.0115302184         137.541435

         960000000      0.0313146172        -25.4144528        0.704966672        -154.835272        0.704966672        -154.835272
                      0.704966672        -154.835272       0.0114535408         136.564375       0.0396653704        -89.9838558
                      0.704966672        -154.835272       0.0396653704        -89.9838558       0.0114535408         136.564375

         970000000       0.028572798        -36.3310128        0.705017338         -156.50484        0.705017338         -156.50484
                      0.705017338         -156.50484       0.0113173329          135.68433       0.0379269458        -83.6668155
                      0.705017338         -156.50484       0.0379269458        -83.6668155       0.0113173329          135.68433

         980000000       0.026712276        -48.8651261        0.705046184        -158.174567        0.705046184        -158.174567
                      0.705046184        -158.174567       0.0111230014         134.920976       0.0369214095        -76.7841299
                      0.705046184        -158.174567       0.0369214095        -76.7841299       0.0111230014         134.920976

         990000000       0.025926185        -62.5280584        0.705053162        -159.844394        0.705053162        -159.844394
                      0.705053162        -159.844394       0.0108722189         134.298578       0.0367069571        -69.6340398
