! Created Sat Jul 26 12:50:07 2025
# hz S ma R 50
! 3 Port Network Data from SP1.SP block
! freq  magS11  angS11  magS12  angS12  magS13  angS13  
!       magS21  angS21  
!       magS22  angS22  magS23  angS23  
!       magS31  angS31  magS32  angS32  
!       magS33  angS33  
!     
         500000000       0.264031998         96.3245458        0.681844678        -73.8696403        0.682058005        -73.9164113
                      0.681844678        -73.8696403       0.0892613906         35.0425659         0.29170549        -81.6696056
                      0.682058005        -73.9164113         0.29170549        -81.6696056       0.0891267533          35.086871

         510000000        0.26130977         94.5038619        0.682364178        -75.3714294        0.682578583        -75.4195498
                      0.682364178        -75.3714294       0.0863557699         32.9099263        0.286563163        -82.6154388
                      0.682578583        -75.4195498        0.286563163        -82.6154388       0.0862186007         32.9569144

         520000000       0.258544705         92.6726371         0.68288562        -76.8744276        0.683100832         -76.923879
                       0.68288562        -76.8744276       0.0835400663          30.789114        0.281494775         -83.552439
                      0.683100832         -76.923879        0.281494775         -83.552439       0.0834004251         30.8389324

         530000000       0.255737529         90.8304399        0.683408666        -78.3786254         0.68362443        -78.4293911
                      0.683408666        -78.3786254       0.0808124008         28.6791755        0.276495912        -84.4806407
                       0.68362443        -78.4293911        0.276495912        -84.4806407       0.0806703488          28.731972

         540000000          0.252889         88.9768195        0.683932982        -79.8840148        0.684149056        -79.9360794
                      0.683932982        -79.8840148       0.0781708959         26.5792003        0.271562436        -85.4000272
                      0.684149056        -79.9360794        0.271562436        -85.4000272       0.0780264947         26.6351236

         550000000       0.249999905         87.1113044        0.684458236        -81.3905885        0.684674392        -81.4439382
                      0.684458236        -81.3905885       0.0756136836         24.4883236         0.26669048        -86.3105317
                      0.684674392        -81.4439382         0.26669048        -86.3105317       0.0754669955         24.5475226

         560000000        0.24707107         85.2334012        0.684984095        -82.8983401        0.685200118        -82.9529623
                      0.684984095        -82.8983401       0.0731389123         22.4057275        0.261876431         -87.212039
                      0.685200118        -82.9529623        0.261876431         -87.212039            0.07299         22.4683515

         570000000       0.244103358         83.3425929        0.685510224        -84.4072642        0.685725909        -84.4631472
                      0.685510224        -84.4072642       0.0707447531         20.3306442        0.257116924        -88.1043862
                      0.685725909        -84.4631472        0.257116924        -88.1043862        0.070593679         20.3968426

         580000000       0.241097672         81.4383368        0.686036284        -85.9173557         0.68625144         -85.974489
                      0.686036284        -85.9173557       0.0684294035          18.262358        0.252408828        -88.9873628
                       0.68625144         -85.974489        0.252408828        -88.9873628       0.0682762303         18.3322803

         590000000       0.238054961         79.5200628        0.686561933        -87.4286102        0.686776378         -87.486984
                      0.686561933        -87.4286102       0.0661910918         16.2002089        0.247749238        -89.8607115
                      0.686776378         -87.486984        0.247749238        -89.8607115       0.0660358822         16.2740042

         600000000       0.234976219         77.5871711        0.687086824        -88.9410233        0.687300385        -89.0006288
                      0.687086824        -88.9410233       0.0640280802         14.1435955        0.243135463        -90.7241273
                      0.687300385        -89.0006288        0.243135463        -90.7241273       0.0638708967         14.2214125

         610000000       0.231862492         75.6390303        0.687610604        -90.4545911        0.687823116        -90.5154203
                      0.687610604        -90.4545911       0.0619386663         12.0919789        0.238565019        -91.5772576
                      0.687823116        -90.5154203        0.238565019        -91.5772576       0.0617795715         12.1739654

         620000000       0.228714882         73.6749745        0.688132914        -91.9693096        0.688344222        -92.0313552
                      0.688132914        -91.9693096       0.0599211855         10.0448869        0.234035618        -92.4197009
                      0.688344222        -92.0313552        0.234035618        -92.4197009       0.0597602422         10.1311896

         630000000       0.225534544         71.6943007        0.688653388         -93.485175        0.688863344        -93.5484301
                      0.688653388         -93.485175        0.057974012         8.00191821        0.229545163        -93.2510057
                      0.688863344        -93.5484301        0.229545163        -93.2510057       0.0578112834         8.09268229

         640000000       0.222322701         69.6962661        0.689171653         -95.002183        0.689380117        -95.0666416
                      0.689171653         -95.002183       0.0560955595         5.96274763        0.225091739        -94.0706688
                      0.689380117        -95.0666416        0.225091739        -94.0706688       0.0559311091         6.05811642

         650000000       0.219080637         67.6800845        0.689687332        -96.5203293         0.68989417        -96.5859857
                      0.689687332        -96.5203293       0.0542842816         3.92713085        0.220673606        -94.8781331
                       0.68989417        -96.5859857        0.220673606        -94.8781331       0.0541181738         4.02724541

         660000000       0.215809709         65.6449236        0.690200038        -98.0396092        0.690405123        -98.1064583
                      0.690200038        -98.0396092       0.0525386721         1.89491018        0.216289194        -95.6727857
                      0.690405123        -98.1064583        0.216289194        -95.6727857       0.0523709722         1.99990885

         670000000        0.21251135         63.5899005        0.690709381        -99.5600173         0.69091259        -99.6280544
                      0.690709381        -99.5600173       0.0508572651       -0.133979815        0.211937096        -96.4539542
                       0.69091259        -99.6280544        0.211937096        -96.4539542       0.0506880397      -0.0239618466

         680000000       0.209187072         61.5140784        0.691214962        -101.081548         0.69141618        -101.150769
                      0.691214962        -101.081548       0.0492386343        -2.15950635        0.207616067        -97.2209039
                       0.69141618        -101.150769        0.207616067        -97.2209039       0.0490679515         -2.0443375

         690000000       0.205838475         59.4164619        0.691716379        -102.604195        0.691915494        -102.674595
                      0.691716379        -102.604195       0.0476813931        -4.18153242        0.203325016        -97.9728338
                      0.691915494        -102.674595        0.203325016        -97.9728338        0.047509323        -4.06108519

         700000000        0.20246725         57.2959928        0.692213223         -104.12795        0.692410128        -104.199527
                      0.692213223         -104.12795       0.0461841941        -6.19981077        0.199063005         -98.708872
                      0.692410128        -104.199527        0.199063005         -98.708872       0.0460108088        -6.07396219

         710000000       0.199075186         55.1515448        0.692705082        -105.652807        0.692899675        -105.725557
                      0.692705082        -105.652807       0.0447457285        -8.21397807        0.194829249        -99.4280707
                      0.692899675        -105.725557        0.194829249        -99.4280707       0.0445711027        -8.08261016

         720000000        0.19566418         52.9819183        0.693191539        -107.178755        0.693383722        -107.252675
                      0.693191539        -107.178755       0.0433647257        -10.2235493        0.190623109        -100.129401
                      0.693383722        -107.252675        0.190623109        -100.129401       0.0431889371        -10.0865496

         730000000        0.19223624         50.7858352        0.693672175        -108.705785        0.693861852        -108.780873
                      0.693672175        -108.705785       0.0420399529         -12.227913        0.186444096        -100.811746
                      0.693861852        -108.780873        0.186444096        -100.811746       0.0418630828        -12.0851747

         740000000       0.188793496         48.5619324        0.694146569        -110.233887        0.694333648         -110.31014
                      0.694146569        -110.233887       0.0407702152        -14.2263264        0.182291873        -101.473893
                      0.694333648         -110.31014        0.182291873        -101.473893       0.0405923481        -14.0777492

         750000000       0.185338208         46.3087559        0.694614296        -111.763048        0.694798688        -111.840463
                      0.694614296        -111.763048       0.0395543545        -16.2179127        0.178166248        -102.114529
                      0.694798688        -111.840463        0.178166248        -102.114529       0.0393755795         -16.063403

         760000000       0.181872778         44.0247538        0.695074934        -113.293255        0.695256553        -113.371832
                      0.695074934        -113.293255       0.0383912505        -18.2016591        0.174067186        -102.732226
                      0.695256553        -113.371832        0.174067186        -102.732226       0.0382116609        -18.0411301

         770000000       0.178399757         41.7082701        0.695528059        -114.824495        0.695706821         -114.90423
                      0.695528059        -114.824495       0.0372798199        -20.1764156        0.169994808        -103.325438
                      0.695706821         -114.90423        0.169994808        -103.325438        0.037099514        -20.0097879

         780000000       0.174921858         39.3575365        0.695973249        -116.356751        0.696149072        -116.437643
                      0.695973249        -116.356751       0.0362190173        -22.1408972        0.165949395        -103.892484
                      0.696149072        -116.437643        0.165949395        -103.892484       0.0360380987        -21.9680994

         790000000        0.17144197         36.9706664        0.696410084        -117.890007        0.696582888        -117.972055
                      0.696410084        -117.890007       0.0352078355        -24.0936877        0.161931396        -104.431541
                      0.696582888        -117.972055        0.161931396        -104.431541       0.0350264132        -23.9146561

         800000000       0.167963172         34.5456465        0.696838149        -119.424245        0.697007856        -119.507448
                      0.696838149        -119.424245        0.034245306        -26.0332452        0.157941437        -104.940628
                      0.697007856        -119.507448        0.157941437        -104.940628       0.0340634953        -25.8479248

         810000000       0.164488742         32.0803301        0.697257032        -120.959446        0.697423563        -121.043802
                      0.697257032        -120.959446       0.0333305005        -27.9579125        0.153980326        -105.417592
                      0.697423563        -121.043802        0.153980326        -105.417592       0.0331484226        -27.7662571

         820000000       0.161022184         29.5724305        0.697666326         -122.49559        0.697829607        -122.581098
                      0.697666326         -122.49559       0.0324625315        -29.8659288        0.150049069        -105.860094
                      0.697829607        -122.581098        0.150049069        -105.860094       0.0322803142        -29.6679017

         830000000       0.157567234         27.0195141        0.698065633        -124.032656        0.698225586        -124.119314
                      0.698065633        -124.032656       0.0316405538        -31.7554466        0.146148879        -106.265588
                      0.698225586        -124.119314        0.146148879        -106.265588       0.0314583316        -31.5510212

         840000000       0.154127888         24.4189953        0.698454559        -125.570619        0.698611112        -125.658428
                      0.698454559        -125.570619        0.030863766        -33.6245512        0.142281194        -106.631307
                      0.698611112        -125.658428        0.142281194        -106.631307       0.0306816802         -33.413712

         850000000       0.150708417         21.7681329        0.698832722        -127.109457          0.6989858        -127.198415
                      0.698832722        -127.109457       0.0301314121        -35.4712848        0.138447695        -106.954242
                        0.6989858        -127.198415        0.138447695        -106.954242       0.0299496111        -35.2540286

         860000000       0.147313392         19.0640277        0.699199749        -128.649143        0.699349277        -128.739249
                      0.699199749        -128.649143       0.0294427831        -37.2936749        0.134650325        -107.231117
                      0.699349277        -128.739249        0.134650325        -107.231117        0.029261422         -37.070012

         870000000       0.143947704          16.303623        0.699555277        -130.189652        0.699701181        -130.280905
                      0.699555277        -130.189652       0.0287972183        -39.0897656        0.130891313        -107.458373
                      0.699701181        -130.280905        0.130891313        -107.458373       0.0286164594        -38.8597218

         880000000        0.14061659         13.4837095        0.699898954        -131.730956        0.700041161        -131.823355
                      0.699898954        -131.730956       0.0281941068         -40.857654        0.127173204         -107.63214
                      0.700041161        -131.823355        0.127173204         -107.63214       0.0280141191        -40.6212727

         890000000       0.137325659         10.6009334        0.700230444        -133.273025        0.700368878         -133.36657
                      0.700230444        -133.273025       0.0276328886        -42.5955286        0.123498884        -107.748216
                      0.700368878         -133.36657        0.123498884        -107.748216       0.0274538477        -42.3528735

         900000000       0.134080911         7.65181141        0.700549421         -134.81583        0.700684008         -134.91052
                      0.700549421         -134.81583       0.0271130553        -44.3017111        0.119871623        -107.802044
                      0.700684008         -134.91052        0.119871623        -107.802044       0.0269351429        -44.0528692

         910000000       0.130888772         4.63275271        0.700855577        -136.359339         0.70098624        -136.455173
                      0.700855577        -136.359339       0.0266341497        -45.9747002        0.116295105        -107.788692
                       0.70098624        -136.455173        0.116295105        -107.788692       0.0264575535        -45.7197852

         920000000       0.127756107         1.54009024        0.701148616        -137.903522        0.701275279        -138.000499
                      0.701148616        -137.903522       0.0261957658        -47.6132153        0.112773479        -107.702835
                      0.701275279        -138.000499        0.112773479        -107.702835       0.0260206788        -47.3523716

         930000000        0.12469025        -1.62987709        0.701428262        -139.448344        0.701550847        -139.546464
                      0.701428262        -139.448344       0.0257975469        -49.2162403        0.109311403        -107.538745
                      0.701550847        -139.546464        0.109311403        -107.538745       0.0256241666        -48.9496471

         940000000       0.121699013        -4.88082892        0.701694253        -140.993772         0.70181268        -141.093033
                      0.701694253        -140.993772       0.0254391835        -50.7830658        0.105914097        -107.290282
                       0.70181268        -141.093033        0.105914097        -107.290282       0.0252677113        -50.5109412

         950000000       0.118790704        -8.21635253        0.701946346        -142.539772        0.702060536        -142.640174
                      0.701946346        -142.539772       0.0251204097        -52.3133262        0.102587401        -106.950912
                      0.702060536        -142.640174        0.102587401        -106.950912       0.0249510499        -52.0359317

         960000000       0.115974129        -11.6398544        0.702184317        -144.086307        0.702294187        -144.187849
                      0.702184317        -144.086307       0.0248409985        -53.8070332       0.0993378333        -106.513726
                      0.702294187        -144.187849       0.0993378333        -106.513726       0.0246739577        -53.5246775

         970000000        0.11325858        -15.1544524        0.702407959        -145.633343        0.702513426        -145.736023
                      0.702407959        -145.633343       0.0246007567        -55.2646008       0.0961726528        -105.971491
                      0.702513426        -145.736023       0.0961726528        -105.971491        0.024436242        -54.9776435

         980000000        0.11065382        -18.7628475        0.702617087        -147.180842        0.702718064         -147.28466
                      0.702617087        -147.180842       0.0243995177        -56.6868624       0.0930999171        -105.316738
                      0.702718064         -147.28466       0.0930999171        -105.316738       0.0242377363        -56.3957167

         990000000       0.108170035        -22.4671748        0.702811533        -148.728768        0.702907933        -148.833722
                      0.702811533        -148.728768       0.0242371345        -58.0750774         0.09012854        -104.541879
