#  HZ   S   DB   R     50.00 
! Rohde & Schwarz Vector Network Analyzer 
! Rohde-Schwarz,ZNC3-2Port,1311600412101323,1.94
! Created: UTC 6/24/2025, 10:56:45 PM
!The following Port Impedance Renormalization has been used when saving the data.
!PortZ  Port1:50+j0    Port2:50+j0
! freq[Hz]                db:S11                  ang:S11                 db:S21                  ang:S21                 db:S12                  ang:S12                 db:S22                  ang:S22
 5.000000000000000E8    -1.138159437123058E1     1.286100178360173E2    -3.279703079416019      -1.122424676637877E2    -3.523598962714724      -1.127692132379939E2    -2.289958661110182E1     8.548575961583993E1
 5.050000000000000E8    -1.140897726556706E1     1.280357881269383E2    -3.259362661662036      -1.133763927555593E2    -3.517025786215979      -1.136973014294569E2    -2.307937521430991E1     8.511570286911582E1
 5.100000000000000E8    -1.143745976892623E1     1.276249679746895E2    -3.255091187301950      -1.145444511152397E2    -3.490121614148336      -1.146969392803861E2    -2.333733049554565E1     8.511130355482403E1
 5.150000000000000E8    -1.146805685875773E1     1.272424699356098E2    -3.254727050652668      -1.157463126927905E2    -3.460324131819355      -1.159684652787988E2    -2.357509271699470E1     8.524487151982928E1
 5.200000000000000E8    -1.151249444908912E1     1.268815254921162E2    -3.251103578879257      -1.168792176393531E2    -3.440742606081470      -1.172698946103355E2    -2.374960858750587E1     8.524702560718644E1
 5.250000000000000E8    -1.158543712337225E1     1.264555638453974E2    -3.255172037642586      -1.180287809330601E2    -3.441659954742822      -1.185432676836615E2    -2.400580271063723E1     8.548093451936984E1
 5.300000000000000E8    -1.163867663436535E1     1.260788379649047E2    -3.248025402543642      -1.192249335227653E2    -3.467321219823353      -1.197441264058852E2    -2.415602921004684E1     8.587919650628518E1
 5.350000000000000E8    -1.168642090402499E1     1.257725105022617E2    -3.263388564847548      -1.202888876821304E2    -3.486529988047771      -1.207712379617788E2    -2.439050419094801E1     8.616612679300310E1
 5.400000000000000E8    -1.174331789082297E1     1.253285025228592E2    -3.264762863650894      -1.214465516494414E2    -3.498792174802008      -1.217690374129609E2    -2.457384089620079E1     8.665512633807457E1
 5.450000000000000E8    -1.178859365277117E1     1.248312496403439E2    -3.256949295929541      -1.225048722355978E2    -3.480666723617589      -1.227035155943355E2    -2.473242858660777E1     8.728811145428229E1
 5.500000000000000E8    -1.184099904065729E1     1.243801797388533E2    -3.253715618029695      -1.235572816113822E2    -3.437234187832642      -1.236825559707989E2    -2.492048640812203E1     8.847553510645301E1
 5.550000000000000E8    -1.187250325937378E1     1.238972452298165E2    -3.249106095434096      -1.246179904447084E2    -3.394621142947658      -1.249470651474441E2    -2.514503532064546E1     8.870302060669972E1
 5.600000000000000E8    -1.187523309041339E1     1.233657097339237E2    -3.233812785099359      -1.257601059493614E2    -3.359791744699714      -1.262837274377407E2    -2.535010941823155E1     8.975176925128120E1
 5.650000000000000E8    -1.194715144275464E1     1.228131104554978E2    -3.219961106085397      -1.268562074101805E2    -3.351875503035292      -1.278817557252400E2    -2.554477459424852E1     8.968368984774389E1
 5.700000000000000E8    -1.196767365370955E1     1.223914220761023E2    -3.219152648257666      -1.281044633086487E2    -3.376866901251661      -1.292537442608646E2    -2.584498237994409E1     9.061844022895600E1
 5.750000000000000E8    -1.205741325507774E1     1.218811246675700E2    -3.215952340950445      -1.293159721837260E2    -3.431599190155428      -1.305537657089250E2    -2.611797639539338E1     9.162464661762243E1
 5.800000000000000E8    -1.210378830263421E1     1.213530092154759E2    -3.220165035589722      -1.304731031518820E2    -3.483672034654007      -1.315346917844182E2    -2.639641687082133E1     9.245881954909723E1
 5.850000000000000E8    -1.215784824439842E1     1.209867587653925E2    -3.220275811473165      -1.316592116585327E2    -3.526195720278107      -1.323185012784881E2    -2.673032499603706E1     9.375520070561082E1
 5.900000000000000E8    -1.222889391369158E1     1.203176244212244E2    -3.227151209362440      -1.329093336152896E2    -3.517165062114329      -1.329105507424073E2    -2.685331948549300E1     9.412991619847779E1
 5.950000000000000E8    -1.226926562407528E1     1.199324341975656E2    -3.232244797029237      -1.340985367551937E2    -3.465827521674523      -1.336638231769597E2    -2.711412501381748E1     9.549946810283994E1
 6.000000000000000E8    -1.231069823373629E1     1.193689227331142E2    -3.231030691737082      -1.353067728895931E2    -3.383314488736921      -1.346335133578163E2    -2.742462013405301E1     9.638961036712200E1
 6.050000000000000E8    -1.237134250679704E1     1.191621921896397E2    -3.243997361255880      -1.364322885690752E2    -3.305316843417925      -1.359407795838285E2    -2.751594491195547E1     9.728922009161811E1
 6.100000000000000E8    -1.238123909229895E1     1.186623314278765E2    -3.234756255483418      -1.374518283069337E2    -3.247990388487717      -1.376366589746787E2    -2.777269460920746E1     9.742084650242151E1
 6.150000000000000E8    -1.242422270364850E1     1.183940555882192E2    -3.233052007150939      -1.385870962799486E2    -3.253706824527582      -1.393774859665898E2    -2.801921891999135E1     9.885725580014814E1
 6.200000000000000E8    -1.251395160548519E1     1.178811530582469E2    -3.220779973320241      -1.397156467975132E2    -3.310219340788189      -1.410392647723403E2    -2.830348768635343E1     1.005838606609262E2
 6.250000000000000E8    -1.259700094935388E1     1.176310386893833E2    -3.207315467418839      -1.409642985054967E2    -3.399937152307646      -1.423676062725724E2    -2.852800153359407E1     1.013565900165484E2
 6.300000000000000E8    -1.270420468358028E1     1.171598524620870E2    -3.196668750588987      -1.421818405838224E2    -3.497275806649096      -1.431880845104905E2    -2.866817622573137E1     1.024364119644731E2
 6.350000000000000E8    -1.276570570066301E1     1.167911551031743E2    -3.177109859364494      -1.432891662021720E2    -3.550075457856608      -1.437599441462777E2    -2.880322109002294E1     1.039873107858064E2
 6.400000000000000E8    -1.281363082247166E1     1.163911876020559E2    -3.178595496916153      -1.445162672902130E2    -3.550876448820491      -1.442274494336716E2    -2.881511177168905E1     1.054585541837811E2
 6.450000000000000E8    -1.287660143250749E1     1.152819277425181E2    -3.173981985565081      -1.457047882641374E2    -3.468451871015502      -1.448006205193196E2    -2.890892779084167E1     1.069481894565060E2
 6.500000000000000E8    -1.289929293846302E1     1.146834809162619E2    -3.167480934395556      -1.468945553181954E2    -3.355611749323084      -1.456979737870908E2    -2.896759267084994E1     1.090634096769095E2
 6.550000000000000E8    -1.298975857735663E1     1.139347829727113E2    -3.175481783973637      -1.480558405981804E2    -3.252644316756066      -1.471002197265672E2    -2.920691601450711E1     1.106641805970738E2
 6.600000000000000E8    -1.306752278123977E1     1.136558106909901E2    -3.178929273736820      -1.492964408305566E2    -3.197919857832565      -1.488665758294986E2    -2.938852631445428E1     1.132197588739883E2
 6.650000000000000E8    -1.308768832162709E1     1.135284995742033E2    -3.182723817857887      -1.504424945490474E2    -3.191249453212885      -1.508295213098580E2    -2.933349869480141E1     1.146750681730566E2
 6.700000000000000E8    -1.312240591725215E1     1.132645590880805E2    -3.177712503674727      -1.515830455906636E2    -3.266483423089545      -1.525685808770494E2    -2.947795828897534E1     1.174756394708825E2
 6.750000000000000E8    -1.319607519193169E1     1.130184700424414E2    -3.187835364998255      -1.527172328676404E2    -3.382694106523057      -1.540575506492950E2    -2.975918478118976E1     1.199793132075206E2
 6.800000000000000E8    -1.328853140751154E1     1.128589413285956E2    -3.184206153139483      -1.537591735391811E2    -3.487942910057021      -1.549484653686578E2    -2.990575552199297E1     1.213742023282341E2
 6.850000000000000E8    -1.339010676709115E1     1.127177841021138E2    -3.186420995197141      -1.548804480510207E2    -3.565328638591572      -1.554519296037430E2    -2.982992336496362E1     1.248904269310225E2
 6.900000000000000E8    -1.350769230752877E1     1.125108678397320E2    -3.182154617145025      -1.560022106182772E2    -3.562551311463928      -1.558199969052743E2    -3.000602853376110E1     1.275076481698838E2
 6.950000000000000E8    -1.359064641027027E1     1.119660834688175E2    -3.170880042463477      -1.571207629104417E2    -3.498049449828931      -1.562533851265816E2    -2.990240523810828E1     1.298508168094262E2
 7.000000000000000E8    -1.367834544385133E1     1.112163170165676E2    -3.173278212641105      -1.583604772474108E2    -3.369363175652782      -1.570759145802911E2    -2.997795025719925E1     1.318871679777612E2
 7.050000000000000E8    -1.369010390404266E1     1.102480298402084E2    -3.164255386158840      -1.594843437100276E2    -3.242761775522835      -1.583482262922052E2    -2.995394233188971E1     1.332651234508735E2
 7.100000000000000E8    -1.381904281146116E1     1.092612503957601E2    -3.164991643959824      -1.607008208747864E2    -3.162372010097694      -1.601739636344518E2    -2.984859534580251E1     1.340678921927584E2
 7.150000000000000E8    -1.388659959573609E1     1.086551336209985E2    -3.155439677566723      -1.619121864625561E2    -3.148732809828337      -1.620214682375064E2    -2.995715355730084E1     1.356388873067009E2
 7.200000000000000E8    -1.395973680727333E1     1.085844812278048E2    -3.156730150978222      -1.631396353074149E2    -3.205258606328606      -1.638274089756205E2    -3.004857060514870E1     1.380861566913578E2
 7.250000000000000E8    -1.400224122204032E1     1.087376535837896E2    -3.151140255266660      -1.644155087128916E2    -3.317151308331833      -1.652588224322332E2    -3.003856417742267E1     1.391888437231424E2
 7.300000000000000E8    -1.402972184605001E1     1.085938408063757E2    -3.144689125496586      -1.655360808715674E2    -3.425312539318743      -1.663323808477888E2    -2.989969940298323E1     1.405169325270108E2
 7.350000000000000E8    -1.416356618242667E1     1.084548138370620E2    -3.140819424993825      -1.667028744952636E2    -3.508735830195280      -1.668410982535213E2    -2.962788092724215E1     1.413588043707526E2
 7.400000000000000E8    -1.430035106709054E1     1.081181582098222E2    -3.138607084421474      -1.678644260506167E2    -3.523579519439773      -1.673288773943062E2    -2.947815975116751E1     1.432210817837567E2
 7.450000000000000E8    -1.445177951196034E1     1.080986368203456E2    -3.129741857951911      -1.690430139402308E2    -3.481957464744464      -1.678383289700267E2    -2.924554173050660E1     1.434454156995710E2
 7.500000000000000E8    -1.462854063234848E1     1.076656816629323E2    -3.133220335463779      -1.702129657181827E2    -3.385611637515081      -1.686721105985979E2    -2.897916860133046E1     1.459432081922522E2
 7.550000000000000E8    -1.470096411986569E1     1.070244659112580E2    -3.133747161728091      -1.713084309185502E2    -3.276406450646969      -1.699385621760141E2    -2.886505591936912E1     1.467595207132112E2
 7.600000000000000E8    -1.479623130418421E1     1.063051599067034E2    -3.124558555116699      -1.723844005535207E2    -3.199491251385056      -1.715527010257123E2    -2.873731388046343E1     1.488536953276944E2
 7.650000000000000E8    -1.485793472327957E1     1.052939404289648E2    -3.134137503851376      -1.736071718594624E2    -3.158426133263542      -1.732422021564768E2    -2.856609238003042E1     1.502588568387696E2
 7.700000000000000E8    -1.487466897375707E1     1.046817595363757E2    -3.151766244130658      -1.747310511482707E2    -3.169698248629456      -1.750548218676058E2    -2.838993105390629E1     1.510093312855020E2
 7.750000000000000E8    -1.493712393742062E1     1.043633610729208E2    -3.148424581761309      -1.757719805063377E2    -3.246139715755794      -1.766787657941427E2    -2.822620603573965E1     1.529749640692791E2
 7.800000000000000E8    -1.501940475502833E1     1.043927542298124E2    -3.155242397439667      -1.768739044295677E2    -3.329849508299139      -1.780209366601984E2    -2.809662411053511E1     1.538911567319469E2
 7.850000000000000E8    -1.505676304886881E1     1.045426851857491E2    -3.161484701746783      -1.779228664890986E2    -3.410719528783130      -1.789574919866288E2    -2.822248602104395E1     1.556575846330987E2
 7.900000000000000E8    -1.517671721241405E1     1.046657457604049E2    -3.151012751565858      -1.790121386242233E2    -3.438753478720496      -1.797000527238563E2    -2.806980636081253E1     1.576310487683773E2
 7.950000000000000E8    -1.531056863695772E1     1.043001897079729E2    -3.139213094340789       1.799295654679945E2    -3.430128309813795       1.796468848283971E2    -2.790091822240994E1     1.578860287438010E2
 8.000000000000000E8    -1.546372572370079E1     1.043240645741405E2    -3.127693176948534       1.786902752840402E2    -3.371968990853241       1.788693032592121E2    -2.805061768170828E1     1.591982726887279E2
 8.050000000000000E8    -1.569237308971489E1     1.037450905035240E2    -3.113370839851908       1.775884244750802E2    -3.302540353371696       1.777309271487189E2    -2.791820310561326E1     1.594977972098224E2
 8.100000000000000E8    -1.585044803813738E1     1.031730720942805E2    -3.106418514895137       1.764619810580963E2    -3.237483208692730       1.763734024783278E2    -2.780148189073354E1     1.597901139537446E2
 8.150000000000000E8    -1.599570495619359E1     1.027111108917665E2    -3.099827200706097       1.752567845044422E2    -3.211490154132514       1.749286208554944E2    -2.770568996978379E1     1.605458876542607E2
 8.200000000000000E8    -1.606631077934154E1     1.016007683620739E2    -3.092000699266332       1.741046677175945E2    -3.206628510623771       1.732959922831189E2    -2.760313074178193E1     1.608063507299414E2
 8.250000000000000E8    -1.615404696995127E1     1.013226058721012E2    -3.097639724160444       1.728370741187799E2    -3.244558531249575       1.719435524976838E2    -2.746070484035467E1     1.607484176540140E2
 8.300000000000000E8    -1.620625210490306E1     1.006732220548581E2    -3.096472201954494       1.716619630083932E2    -3.297927773200309       1.706646128367945E2    -2.733466992870272E1     1.601585505155733E2
 8.350000000000000E8    -1.627271223200760E1     1.004851704966519E2    -3.105384910861984       1.704083502393850E2    -3.327612280424923       1.696478871268927E2    -2.715949035207806E1     1.606908146226774E2
 8.400000000000000E8    -1.637596864681092E1     1.005793412974421E2    -3.115358200098298       1.691433104454731E2    -3.354965169574156       1.686844652885390E2    -2.701933628125655E1     1.618368003536326E2
 8.450000000000000E8    -1.646685093244480E1     1.008376592442117E2    -3.124064154419183       1.679505727187419E2    -3.352967429583845       1.677838881721458E2    -2.677262606421277E1     1.627339662781115E2
 8.500000000000000E8    -1.661099622862990E1     1.012547499779975E2    -3.123179725546452       1.668743176530919E2    -3.326853708955611       1.669106342920976E2    -2.658332031174325E1     1.641269597876783E2
 8.550000000000000E8    -1.678573129492658E1     1.012078630843758E2    -3.125069295662681       1.658083039284950E2    -3.295068267705529       1.657641829595787E2    -2.638233530890769E1     1.638257768469060E2
 8.600000000000000E8    -1.701843762791933E1     1.009346752175174E2    -3.135586043383265       1.647299726536321E2    -3.268232984317281       1.644508649402629E2    -2.620767077294843E1     1.652221407709116E2
 8.650000000000000E8    -1.727044583567755E1     1.004144807521848E2    -3.127418234220305       1.636354638824652E2    -3.253372863455847       1.631670176763890E2    -2.602458690134412E1     1.658731344230894E2
 8.700000000000000E8    -1.745327817834607E1     9.985097994294753E1    -3.120413167687784       1.624694399941913E2    -3.248083807307212       1.619164018939751E2    -2.602261076603445E1     1.673802105538197E2
 8.750000000000000E8    -1.762300486948454E1     9.917302302620961E1    -3.111816776199246       1.613286036588969E2    -3.256239987170372       1.606415919540442E2    -2.595904411457904E1     1.674755317940888E2
 8.800000000000000E8    -1.776729857401148E1     9.853872927569366E1    -3.105481686653343       1.601494431412857E2    -3.269774098568837       1.594659653355082E2    -2.577232098371189E1     1.680074240832858E2
 8.850000000000000E8    -1.777294836252890E1     9.816106553755795E1    -3.101656871079048       1.589677430539877E2    -3.283692507051984       1.583766434614006E2    -2.578422824864132E1     1.686290388416667E2
 8.900000000000000E8    -1.788477597149890E1     9.793995875029268E1    -3.093930800367559       1.577570506749377E2    -3.287827976487618       1.572320000372841E2    -2.584443976584599E1     1.689007700982529E2
 8.950000000000000E8    -1.799366211126739E1     9.802965373717778E1    -3.089723974259221       1.565572805300210E2    -3.289379361333952       1.561057334191002E2    -2.586506320299586E1     1.696800346772473E2
 9.000000000000000E8    -1.810195677317524E1     9.815650276177435E1    -3.092508800858103       1.553946764331402E2    -3.276460354067071       1.549420877928183E2    -2.568938316286807E1     1.700954995716240E2
 9.050000000000000E8    -1.828545978918065E1     9.828561562142987E1    -3.091697635493460       1.542696825863619E2    -3.271750816806132       1.537339809492576E2    -2.564334296121630E1     1.705767811123307E2
 9.100000000000000E8    -1.850816384177316E1     9.898368081884397E1    -3.093890833615151       1.531185964249087E2    -3.270451007860045       1.525810708270160E2    -2.558729352227353E1     1.699748936696510E2
 9.150000000000000E8    -1.873226157474089E1     9.924464163583455E1    -3.088360834249672       1.519959972311820E2    -3.264560317986013       1.513148194986266E2    -2.553578989621549E1     1.697353724358653E2
 9.200000000000000E8    -1.907148762621340E1     9.922824857065611E1    -3.087344414027941       1.509281846819167E2    -3.271440783606181       1.500716977760016E2    -2.544313763943305E1     1.693465277441136E2
 9.250000000000000E8    -1.935075643977174E1     9.894455747579721E1    -3.085717156938931       1.498014777205938E2    -3.269816851656052       1.488691546617393E2    -2.528633717430203E1     1.695960088864383E2
 9.300000000000000E8    -1.958705032542134E1     9.817627652880574E1    -3.082927341201561       1.486641216841742E2    -3.252289784252527       1.476672228806643E2    -2.521030952430182E1     1.694644109245017E2
 9.350000000000000E8    -1.978704915648927E1     9.762798115215121E1    -3.069842221622837       1.475439965495800E2    -3.244886587134666       1.463801708885787E2    -2.501398798234249E1     1.688875793715177E2
 9.400000000000000E8    -1.991315762592058E1     9.750386679012840E1    -3.077022030871631       1.463863011756987E2    -3.243825757890195       1.452334176977350E2    -2.487378721776626E1     1.696513689150987E2
 9.450000000000000E8    -2.004354323842185E1     9.694244079054245E1    -3.063837470935238       1.452383803099145E2    -3.243242107751019       1.439224494727367E2    -2.467864512879170E1     1.702902247051368E2
 9.500000000000000E8    -2.009903351240702E1     9.737257399512752E1    -3.069865476133160       1.439906221367075E2    -3.241532370758085       1.426461395225596E2    -2.455473832010981E1     1.709233254054260E2
