#  HZ   S   DB   R     50.00 
! Rohde & Schwarz Vector Network Analyzer 
! Rohde-Schwarz,ZNC3-2Port,1311600412101323,1.94
! Created: UTC 6/24/2025, 11:05:35 PM
!The following Port Impedance Renormalization has been used when saving the data.
!PortZ  Port1:50+j0    Port2:50+j0
! freq[Hz]                db:S11                  ang:S11                 db:S21                  ang:S21                 db:S12                  ang:S12                 db:S22                  ang:S22
 5.000000000000000E8    -3.866837706897666E1     5.473199627748649E1     1.088175160914799E-3   -2.957942237838478E1    -1.982117901617783E-1   -3.049474629566520E1    -3.759046562788361E1     4.381688826813941E1
 5.050000000000000E8    -3.879396644410267E1     5.695160361020287E1     3.373788872324041E-3   -2.987348643007376E1    -2.038087550756813E-1   -3.087302935645668E1    -3.767535288824174E1     4.740297942447584E1
 5.100000000000000E8    -3.852365784507598E1     6.045180091770309E1    -5.692687728979285E-3   -3.018174790984411E1    -2.014461658190032E-1   -3.108481002345681E1    -3.759628043293527E1     4.735706427511826E1
 5.150000000000000E8    -3.821946434353319E1     6.415916463563271E1    -8.181771080773805E-3   -3.046584185376043E1    -2.000670004282470E-1   -3.149558480014334E1    -3.689101335760550E1     4.746379641929391E1
 5.200000000000000E8    -3.843956503801182E1     6.475486636641905E1    -7.777910929953753E-3   -3.075666258871313E1    -2.066050584081134E-1   -3.184181821200733E1    -3.683648469784159E1     4.796424772230549E1
 5.250000000000000E8    -3.816636482439764E1     6.499338732474111E1    -6.762102262284069E-3   -3.099969243927593E1    -2.055715037435538E-1   -3.211977006474895E1    -3.622052085916921E1     4.930791086351327E1
 5.300000000000000E8    -3.844082892378270E1     6.636301911557355E1    -6.959785261998133E-3   -3.136281388427307E1    -2.100671402354314E-1   -3.237705287397866E1    -3.637546432737465E1     4.783378545485957E1
 5.350000000000000E8    -3.798133689580160E1     6.398915078119910E1    -1.441430566302684E-2   -3.161417300973576E1    -2.090928373859759E-1   -3.264856741448576E1    -3.603278169744149E1     4.956874326931379E1
 5.400000000000000E8    -3.808196879582022E1     6.334654590991179E1    -1.074537101048174E-2   -3.194845173348316E1    -2.148061713682394E-1   -3.293883153949015E1    -3.627214309204930E1     4.912506340835814E1
 5.450000000000000E8    -3.783299518645244E1     6.259180204896705E1    -9.312786942140253E-3   -3.215545118816652E1    -2.080692553373623E-1   -3.321168668657267E1    -3.622850966178858E1     4.866251049572581E1
 5.500000000000000E8    -3.821942569170214E1     6.235222734600782E1    -7.401696343498691E-3   -3.241626793060970E1    -2.053541114307668E-1   -3.354802846452744E1    -3.656043599369424E1     5.119937465893530E1
 5.550000000000000E8    -3.814542084171430E1     6.118525399350965E1    -1.744935359870861E-2   -3.263347323425481E1    -2.030366065629128E-1   -3.388205232564850E1    -3.693119030170810E1     5.075819695449543E1
 5.600000000000000E8    -3.847434829003047E1     6.235985811864437E1    -1.388396175135151E-2   -3.297502395868984E1    -2.037874865047935E-1   -3.419499539330477E1    -3.706518668340755E1     5.202037522410377E1
 5.650000000000000E8    -3.864930192833428E1     5.901812780650499E1    -1.291803852529693E-2   -3.323009575586815E1    -2.091347716654181E-1   -3.459042943024788E1    -3.700842505275607E1     5.552609855700761E1
 5.700000000000000E8    -3.854198189438477E1     5.887823809121273E1    -9.390182846095156E-3   -3.354616441904704E1    -2.054988089564212E-1   -3.479663184619623E1    -3.673918077545869E1     5.702543894588847E1
 5.750000000000000E8    -3.921058590348535E1     6.186539127330038E1    -8.299144959488419E-3   -3.388090588002613E1    -2.147281211786953E-1   -3.507578063018991E1    -3.684864773776555E1     5.543495669504032E1
 5.800000000000000E8    -3.850451670595100E1     5.850748962503197E1    -1.291810657094157E-2   -3.414698160830920E1    -2.151628264766627E-1   -3.536572294492732E1    -3.670741468655631E1     5.484042614488860E1
 5.850000000000000E8    -3.843889486183912E1     6.306605856221803E1    -4.979497771195946E-3   -3.451272442841118E1    -2.172661128486821E-1   -3.565178858189027E1    -3.656556499745469E1     5.298263354779778E1
 5.900000000000000E8    -3.799275517291319E1     6.487399131409909E1    -9.040959772738286E-3   -3.487661603362008E1    -2.154922802512676E-1   -3.587680847102321E1    -3.648073543638895E1     5.424596534966007E1
 5.950000000000000E8    -3.750972350846971E1     6.726820088959406E1    -1.148691286841744E-2   -3.526472172735920E1    -2.127349791097930E-1   -3.611860922005885E1    -3.669635299069594E1     5.166211562052059E1
 6.000000000000000E8    -3.731123030618112E1     6.994382213635025E1    -1.887798200226671E-2   -3.561363697286321E1    -2.056938299188665E-1   -3.641209954685579E1    -3.668323129049117E1     4.986350834389576E1
 6.050000000000000E8    -3.736643211918625E1     7.106442376203886E1    -1.912102928175654E-2   -3.589559104069048E1    -2.045140657498358E-1   -3.669203227617159E1    -3.663751437934166E1     4.958367987731891E1
 6.100000000000000E8    -3.758630821665945E1     7.332304088866773E1    -1.904934882219481E-2   -3.611393651518951E1    -2.011007718746765E-1   -3.706771206949657E1    -3.657780795344282E1     4.966433565328020E1
 6.150000000000000E8    -3.734485893360861E1     7.288807635882762E1    -1.682949721770195E-2   -3.642043902986882E1    -2.113590415924421E-1   -3.735628601263897E1    -3.644046124970486E1     4.851006725962650E1
 6.200000000000000E8    -3.783514885860597E1     7.282898181194825E1    -1.020814908375913E-2   -3.674818381031262E1    -2.145919607822310E-1   -3.765604744751797E1    -3.647014695421613E1     5.248342475723656E1
 6.250000000000000E8    -3.823106403500257E1     6.974271962276278E1    -6.148381937710556E-3   -3.713154434777312E1    -2.214838250204264E-1   -3.792258050853794E1    -3.606744359925842E1     5.246012111405547E1
 6.300000000000000E8    -3.843137666456592E1     6.877265087855871E1     2.945601134181015E-3   -3.752862371625943E1    -2.194496417113778E-1   -3.812030264889899E1    -3.591714675830567E1     5.391614706925404E1
 6.350000000000000E8    -3.885634642544710E1     6.797630488982638E1     6.710362306729972E-3   -3.775426365751935E1    -2.248041694745359E-1   -3.835432658578863E1    -3.549168155097635E1     5.404786650610016E1
 6.400000000000000E8    -3.868650988585065E1     6.239783046206887E1     6.348982916570457E-3   -3.810683290809905E1    -2.193445647687495E-1   -3.866919049278915E1    -3.554181716019056E1     5.115497403872631E1
 6.450000000000000E8    -3.856471497271759E1     6.405639733027670E1     1.181881765669958E-2   -3.842921768903040E1    -2.103859629462013E-1   -3.895039025028878E1    -3.557135684575742E1     5.404993025086013E1
 6.500000000000000E8    -3.805306220853274E1     6.513530676983973E1     1.040558060280313E-2   -3.880685265489419E1    -2.059043186707124E-1   -3.919697206640238E1    -3.584749727428478E1     5.407899382883156E1
 6.550000000000000E8    -3.808047411358319E1     6.726572613570393E1     5.916039838651696E-3   -3.909155071030879E1    -2.038005597488918E-1   -3.952249242400421E1    -3.565870473902112E1     5.547479124412597E1
 6.600000000000000E8    -3.771664601940269E1     7.285513628578748E1    -1.415022212841672E-3   -3.945243020587189E1    -2.086244798829960E-1   -3.983458041697480E1    -3.564800760409583E1     5.487009861786918E1
 6.650000000000000E8    -3.735743525226225E1     7.631047813779033E1    -4.067350369694219E-3   -3.974995714672699E1    -2.101031459866618E-1   -4.015715887971789E1    -3.564001063918791E1     5.867586260371325E1
 6.700000000000000E8    -3.725368849359636E1     7.490989660834556E1    -3.161134401504729E-4   -4.006505079596357E1    -2.173904493237967E-1   -4.046680492468663E1    -3.585359065190815E1     5.736936220404971E1
 6.750000000000000E8    -3.736110464967113E1     7.676462153518780E1    -2.111972861755372E-2   -4.027100667044580E1    -2.251773239385260E-1   -4.086544135717961E1    -3.608312979400652E1     5.736849372711653E1
 6.800000000000000E8    -3.795073795958629E1     7.907968427959405E1    -1.867811576439481E-2   -4.049002363363368E1    -2.271111389173558E-1   -4.117600500229965E1    -3.610501833925670E1     5.651376402415553E1
 6.850000000000000E8    -3.810069564738176E1     7.802483658977668E1    -2.066021208306490E-2   -4.073377822021775E1    -2.365730651851122E-1   -4.140727728615943E1    -3.618305298671061E1     5.863920506278867E1
 6.900000000000000E8    -3.841928792023408E1     7.173853059193489E1    -1.849144613805696E-2   -4.100409111689988E1    -2.237809601375648E-1   -4.166050282141658E1    -3.605574790220193E1     5.831777810416107E1
 6.950000000000000E8    -3.881241312995062E1     6.770898996808748E1    -6.459483554922991E-3   -4.125318120769420E1    -2.311033600257304E-1   -4.189855759587172E1    -3.608359049431855E1     5.497459996727073E1
 7.000000000000000E8    -3.823833648465080E1     6.811787499001514E1    -9.071385351359501E-4   -4.165425024900763E1    -2.109121368335231E-1   -4.218420058702975E1    -3.600848072826764E1     5.591711811963889E1
 7.050000000000000E8    -3.790150986037433E1     6.388449226206691E1     4.051153108519123E-3   -4.194089508284181E1    -2.065734029534456E-1   -4.252077309440127E1    -3.622818789102808E1     5.200318632652379E1
 7.100000000000000E8    -3.769553794475198E1     6.845960708041358E1     1.178769964680755E-2   -4.235904887038891E1    -2.134543245467221E-1   -4.281566862005555E1    -3.597768874186697E1     5.326034931476244E1
 7.150000000000000E8    -3.763672596864909E1     7.147396745678364E1     1.458290162493906E-2   -4.275386475779370E1    -2.162570588491356E-1   -4.308793751867979E1    -3.594175513963540E1     5.440442211559263E1
 7.200000000000000E8    -3.740177219472722E1     7.398599673393650E1     1.085115164219454E-2   -4.318276692335400E1    -2.226377682252310E-1   -4.337149793795475E1    -3.560260123444191E1     5.468655525934450E1
 7.250000000000000E8    -3.719018926416884E1     7.886652816945150E1     1.449198605040925E-2   -4.363396542713016E1    -2.418158990944713E-1   -4.357993548102949E1    -3.532987389557442E1     5.395354958839010E1
 7.300000000000000E8    -3.723988792058962E1     8.275597319351918E1     5.717879323982989E-3   -4.397626607142470E1    -2.418231441327169E-1   -4.383895936434498E1    -3.509260943749128E1     5.388144828678781E1
 7.350000000000000E8    -3.784453795717132E1     8.671832667208994E1    -4.904642472658413E-3   -4.426166153552881E1    -2.446878632194937E-1   -4.404560210383829E1    -3.504324349332757E1     5.590887569416660E1
 7.400000000000000E8    -3.746834826961493E1     8.609184903942716E1    -7.970650309832409E-3   -4.456828109586215E1    -2.462823817607415E-1   -4.431055460529363E1    -3.521192820424838E1     5.639616984044895E1
 7.450000000000000E8    -3.825808377506331E1     8.481351776269557E1    -2.067940605564026E-2   -4.483209821064036E1    -2.398061879726077E-1   -4.458363956761229E1    -3.519954824610500E1     5.793387905275043E1
 7.500000000000000E8    -3.824072674228320E1     8.017319903819356E1    -2.912091578523398E-2   -4.508892456653330E1    -2.308247962198662E-1   -4.492333522390756E1    -3.490368000709479E1     5.796941780747446E1
 7.550000000000000E8    -3.863302871471123E1     7.330586867459493E1    -3.536923470511426E-2   -4.520681220525209E1    -2.212353354820025E-1   -4.528407718541039E1    -3.502885977639016E1     6.225604116354361E1
 7.600000000000000E8    -3.875537264678427E1     7.289524611369826E1    -2.405654509954169E-2   -4.546009355293272E1    -2.194953151456894E-1   -4.565965274831327E1    -3.484818270052264E1     6.339320117163404E1
 7.650000000000000E8    -3.812699246085382E1     7.405073487596846E1    -2.597185954019934E-2   -4.568977329921578E1    -2.108145372418854E-1   -4.602863191264684E1    -3.480276515697236E1     6.094895907309607E1
 7.700000000000000E8    -3.787539867495448E1     7.629344059589444E1    -3.043447230754757E-2   -4.593066679123411E1    -2.208473401663728E-1   -4.641973008140717E1    -3.531136861827952E1     6.334905204461640E1
 7.750000000000000E8    -3.682174918195459E1     7.642050583182875E1    -2.274170091222566E-2   -4.617319502069629E1    -2.290830250234484E-1   -4.678709428896421E1    -3.533467018282236E1     6.201559110135243E1
 7.800000000000000E8    -3.687667188500551E1     8.170771952989422E1    -1.283480202480639E-2   -4.643995843194303E1    -2.423909916431454E-1   -4.718462814198650E1    -3.561293956257475E1     6.090541377270630E1
 7.850000000000000E8    -3.721755534260804E1     8.404622312959634E1    -1.463586403251378E-2   -4.670253137306053E1    -2.425735777655784E-1   -4.747830122545636E1    -3.541557000428745E1     6.052082560746310E1
 7.900000000000000E8    -3.713342226866999E1     8.615490283265311E1    -9.597761450376904E-3   -4.697696130148976E1    -2.479378391087597E-1   -4.779864207124077E1    -3.542829101822296E1     5.893316421985536E1
 7.950000000000000E8    -3.776526075211954E1     8.951487726572216E1    -6.059375292387513E-3   -4.729511565480199E1    -2.530722653976688E-1   -4.803963037951291E1    -3.568648177217990E1     5.834463427384144E1
 8.000000000000000E8    -3.796836688969479E1     8.602424645899153E1    -5.524359695541574E-3   -4.767520199941401E1    -2.375803402101361E-1   -4.831618464818602E1    -3.553143491333649E1     5.893430818044415E1
 8.050000000000000E8    -3.829436679062975E1     8.769596190977191E1    -9.796492173363114E-3   -4.802387635347625E1    -2.354978611351219E-1   -4.861472191769331E1    -3.547596689036782E1     5.884924098243631E1
 8.100000000000000E8    -3.862254667983359E1     8.213565729457604E1    -1.487785275748565E-2   -4.829064470267451E1    -2.301633855733961E-1   -4.894104451424749E1    -3.507709250049638E1     5.853678103328400E1
 8.150000000000000E8    -3.871298521532820E1     8.023531751771688E1    -2.629334914347192E-2   -4.858792660270527E1    -2.348324975876180E-1   -4.924972335275346E1    -3.475571662785670E1     5.910117986725653E1
 8.200000000000000E8    -3.803360146225366E1     7.676710011000921E1    -2.728458784932766E-2   -4.877561416685594E1    -2.315327476103608E-1   -4.965197771844439E1    -3.446209391133325E1     6.015824260221914E1
 8.250000000000000E8    -3.752120252679986E1     7.498148223915267E1    -3.781262082742028E-2   -4.907310871091513E1    -2.395405083212392E-1   -4.990612789821484E1    -3.449056870153044E1     5.943110513945673E1
 8.300000000000000E8    -3.711631293671130E1     7.648385713108202E1    -3.639216222355339E-2   -4.935056649927289E1    -2.520626841950838E-1   -5.019613984344171E1    -3.406427780693009E1     5.942975939910352E1
 8.350000000000000E8    -3.657005446291070E1     7.871736988819230E1    -3.550222867470277E-2   -4.963038579047711E1    -2.443541912277300E-1   -5.047764437820629E1    -3.403959111245484E1     6.051292524281949E1
 8.400000000000000E8    -3.670853763849418E1     8.622916300489015E1    -3.788728741219288E-2   -4.993702926129848E1    -2.513528531976876E-1   -5.076233883867270E1    -3.453517201521506E1     6.134663089820570E1
 8.450000000000000E8    -3.679707908159595E1     8.700138170838334E1    -3.146302384171104E-2   -5.025012293910444E1    -2.541135354788007E-1   -5.098646436670965E1    -3.451153983719797E1     6.331922903682839E1
 8.500000000000000E8    -3.679549933908093E1     9.275960372676344E1    -2.990784962560323E-2   -5.055900380087196E1    -2.512221213745973E-1   -5.120521973621423E1    -3.447634119549955E1     6.513159034670184E1
 8.550000000000000E8    -3.742810273894400E1     9.168940719349570E1    -2.368513581336478E-2   -5.083783210233175E1    -2.552090328916264E-1   -5.153912444460512E1    -3.444532047618656E1     6.654234196330660E1
 8.600000000000000E8    -3.853442180901426E1     9.244397540931149E1    -2.957211116347966E-2   -5.109694250518447E1    -2.509311755230280E-1   -5.191455810992134E1    -3.481996727961897E1     6.750883599449500E1
 8.650000000000000E8    -3.858234056374150E1     9.231593739386979E1    -2.353947947010349E-2   -5.135648466586850E1    -2.421495647785907E-1   -5.220159218798238E1    -3.461976996012962E1     6.857508852218504E1
 8.700000000000000E8    -3.845745403547646E1     8.690696326974445E1    -2.353947172970727E-2   -5.174212977686516E1    -2.412184367075237E-1   -5.246712217468652E1    -3.478206751743888E1     6.892134680923188E1
 8.750000000000000E8    -3.839084229454306E1     8.613314589818178E1    -2.958310905103363E-2   -5.208947865333477E1    -2.447550428297746E-1   -5.277023860725380E1    -3.455143776177897E1     6.542561652275811E1
 8.800000000000000E8    -3.778538902434502E1     8.156625176178812E1    -3.486412733569867E-2   -5.241288349585983E1    -2.504487149737130E-1   -5.302883967243364E1    -3.472453718510685E1     6.449460071029648E1
 8.850000000000000E8    -3.734001418416165E1     8.076232141684336E1    -3.008290735423181E-2   -5.275780200234036E1    -2.518873690056557E-1   -5.329174647862241E1    -3.474459254730225E1     6.181069624417070E1
 8.900000000000000E8    -3.700080694389093E1     8.325088197841102E1    -3.277443510475724E-2   -5.303604543295209E1    -2.529661835852148E-1   -5.361990390468731E1    -3.507140433838478E1     6.160503736223458E1
 8.950000000000000E8    -3.640427224299362E1     8.456343630589822E1    -3.288912757342810E-2   -5.329201384236207E1    -2.533261999865438E-1   -5.393229961076297E1    -3.494736250114711E1     6.160764589174592E1
 9.000000000000000E8    -3.641070419774486E1     8.790544136298114E1    -3.126990758310431E-2   -5.358815706065120E1    -2.497108057065783E-1   -5.425268615460267E1    -3.474334910832580E1     6.146698985829376E1
 9.050000000000000E8    -3.689228124135077E1     9.235776042379457E1    -3.749369804669750E-2   -5.385069828239239E1    -2.522131368535254E-1   -5.459655662732939E1    -3.456009831165942E1     6.174079038784787E1
 9.100000000000000E8    -3.689437608077910E1     9.701341096730872E1    -3.857808927388130E-2   -5.414790286728110E1    -2.572980493316986E-1   -5.493692089358952E1    -3.443757033154519E1     6.280328824163002E1
 9.150000000000000E8    -3.759693429747918E1     1.002863008968681E2    -4.042047456240670E-2   -5.434986973861495E1    -2.571432279761207E-1   -5.525168309868445E1    -3.380548421161118E1     6.300030357580453E1
 9.200000000000000E8    -3.825989042883326E1     1.025903340750818E2    -3.159182942299294E-2   -5.458471638119065E1    -2.671087360695036E-1   -5.561713758472754E1    -3.357294762685317E1     6.338353443186220E1
 9.250000000000000E8    -3.849824761273818E1     9.861341460231444E1    -4.242472757363752E-2   -5.486955164462656E1    -2.617450906622361E-1   -5.595301758326846E1    -3.349143024441819E1     6.470865906038955E1
 9.300000000000000E8    -3.889720389192574E1     9.723215761588493E1    -3.217694382061233E-2   -5.514590616040651E1    -2.543241019069506E-1   -5.630468512005281E1    -3.327278969144131E1     6.489056104483278E1
 9.350000000000000E8    -3.820179258997954E1     9.261014382944623E1    -3.640067549472095E-2   -5.539671862352579E1    -2.534801554259761E-1   -5.672341366881233E1    -3.332068145186491E1     6.675090361073212E1
 9.400000000000000E8    -3.803317125624251E1     9.029410771922679E1    -4.606489351546705E-2   -5.564746238316023E1    -2.579644922303407E-1   -5.707539923083248E1    -3.335324104596492E1     6.714240230810785E1
 9.450000000000000E8    -3.753800456250126E1     8.907568876640848E1    -4.199500103731799E-2   -5.591574156149191E1    -2.640932936570059E-1   -5.733529100581313E1    -3.366441872745089E1     6.916867218042147E1
 9.500000000000000E8    -3.650213487103422E1     8.982324175024796E1    -4.344661434004515E-2   -5.620083363116412E1    -2.640977716767276E-1   -5.770373692909707E1    -3.380147910290353E1     6.967217737197100E1
